HEADER
"PSFversion" "1.00"
"simulator" "spectre"
"version" "23.1.0.538.isr10"
"date" "6:04:06 PM, Mon Jun 15, 2026"
"design" "// Point Netlist Generated on: Jun 15 16:03:48 2026"
"analysis type" "dc"
"analysis name" "dc"
"analysis description" "DC Analysis `dc': Vsd = (0 -> 800e-03)"
"xVecSorted" "unsorted"
"tolerance.relative" 1.000000000000000e-03
"reltol" 1.000000000000000e-03
"abstol(V)" 1.000000000000000e-06
"abstol(I)" 1.000000000000000e-12
"temp" 2.700000000000000e+01
"tnom" 2.700000000000000e+01
"tempeffects" "all"
"gmindc" 1.000000000000000e-12
TYPE
"sweep" FLOAT DOUBLE PROP(
"key" "sweep"
)
"LogicV" FLOAT DOUBLE PROP(
"key" "node"
)
"V" FLOAT DOUBLE PROP(
"units" "V"
"key" "node"
"tolerance" 1.000000000000000e-06
)
"I" FLOAT DOUBLE PROP(
"units" "A"
"key" "branch"
"tolerance" 1.000000000000000e-12
)
"MMF" FLOAT DOUBLE PROP(
"units" "A*turn"
"key" "node"
"tolerance" 1.000000000000000e-12
)
"Wb" FLOAT DOUBLE PROP(
"units" "Wb"
"key" "node"
"tolerance" 1.000000000000000e-09
)
"Temp" FLOAT DOUBLE PROP(
"units" "C"
"key" "node"
"tolerance" 1.000000000000000e-04
)
"Pwr" FLOAT DOUBLE PROP(
"units" "W"
"key" "node"
"tolerance" 1.000000000000000e-09
)
"U" FLOAT DOUBLE PROP(
"units" ""
"key" "node"
"tolerance" 1.000000000000000e-06
)
"V/Sec" FLOAT DOUBLE PROP(
"units" "V/s"
"key" "node"
"tolerance" 9.999999999999999e-05
)
"I/Sec" FLOAT DOUBLE PROP(
"units" "A/s"
"key" "node"
"tolerance" 1.000000000000000e-06
)
"1/Sec" FLOAT DOUBLE PROP(
"units" "1/s"
"key" "node"
"tolerance" 9.999999999999999e-05
)
"HOD" FLOAT DOUBLE PROP(
"units" ""
"key" "node"
"tolerance" 1.000000000000000e-02
)
"Q" FLOAT DOUBLE PROP(
"units" "Coul"
"key" "node"
"tolerance" 1.000000000000000e-15
)
"Efield" FLOAT DOUBLE PROP(
"units" "V/m"
"key" "node"
"tolerance" 1.000000000000000e-06
"sigtype" "optical"
)
SWEEP
"Vsd" "sweep" PROP(
"sweep_direction" 0
"plot" 0
"grid" 1
)
TRACE
"PM0:s" "I"
"Vsd" "V"
VALUE
"Vsd" 0.000000000000000e+00
"PM0:s" 8.661565196048362e-14
"Vsd" 0.000000000000000e+00
"Vsd" 1.600000000000000e-02
"PM0:s" 3.046633471829941e-07
"Vsd" 1.600000000000000e-02
"Vsd" 3.200000000000000e-02
"PM0:s" 5.552208573461278e-07
"Vsd" 3.200000000000000e-02
"Vsd" 4.800000000000000e-02
"PM0:s" 7.525282476347928e-07
"Vsd" 4.800000000000000e-02
"Vsd" 6.400000000000000e-02
"PM0:s" 9.038305388178587e-07
"Vsd" 6.400000000000000e-02
"Vsd" 8.000000000000000e-02
"PM0:s" 1.018870338925198e-06
"Vsd" 8.000000000000000e-02
"Vsd" 9.600000000000000e-02
"PM0:s" 1.107124072853503e-06
"Vsd" 9.600000000000000e-02
"Vsd" 1.120000000000000e-01
"PM0:s" 1.176279903527646e-06
"Vsd" 1.120000000000000e-01
"Vsd" 1.280000000000000e-01
"PM0:s" 1.231998090992686e-06
"Vsd" 1.280000000000000e-01
"Vsd" 1.440000000000000e-01
"PM0:s" 1.278257344490579e-06
"Vsd" 1.440000000000000e-01
"Vsd" 1.600000000000000e-01
"PM0:s" 1.317805643743589e-06
"Vsd" 1.600000000000000e-01
"Vsd" 1.760000000000000e-01
"PM0:s" 1.352537827977474e-06
"Vsd" 1.760000000000000e-01
"Vsd" 1.920000000000001e-01
"PM0:s" 1.383769666013726e-06
"Vsd" 1.920000000000001e-01
"Vsd" 2.080000000000001e-01
"PM0:s" 1.412425405197528e-06
"Vsd" 2.080000000000001e-01
"Vsd" 2.240000000000001e-01
"PM0:s" 1.439163180078832e-06
"Vsd" 2.240000000000001e-01
"Vsd" 2.400000000000001e-01
"PM0:s" 1.464458417109940e-06
"Vsd" 2.400000000000001e-01
"Vsd" 2.560000000000001e-01
"PM0:s" 1.488659521467349e-06
"Vsd" 2.560000000000001e-01
"Vsd" 2.720000000000001e-01
"PM0:s" 1.512025389533063e-06
"Vsd" 2.720000000000001e-01
"Vsd" 2.880000000000001e-01
"PM0:s" 1.534750970104156e-06
"Vsd" 2.880000000000001e-01
"Vsd" 3.040000000000002e-01
"PM0:s" 1.556984904199782e-06
"Vsd" 3.040000000000002e-01
"Vsd" 3.200000000000002e-01
"PM0:s" 1.578841858668125e-06
"Vsd" 3.200000000000002e-01
"Vsd" 3.360000000000002e-01
"PM0:s" 1.600411262818947e-06
"Vsd" 3.360000000000002e-01
"Vsd" 3.520000000000002e-01
"PM0:s" 1.621763576184621e-06
"Vsd" 3.520000000000002e-01
"Vsd" 3.680000000000002e-01
"PM0:s" 1.642954840359632e-06
"Vsd" 3.680000000000002e-01
"Vsd" 3.840000000000002e-01
"PM0:s" 1.664030023463408e-06
"Vsd" 3.840000000000002e-01
"Vsd" 4.000000000000002e-01
"PM0:s" 1.685025504852959e-06
"Vsd" 4.000000000000002e-01
"Vsd" 4.160000000000003e-01
"PM0:s" 1.705970940559040e-06
"Vsd" 4.160000000000003e-01
"Vsd" 4.320000000000003e-01
"PM0:s" 1.726890677740521e-06
"Vsd" 4.320000000000003e-01
"Vsd" 4.480000000000003e-01
"PM0:s" 1.747804837268586e-06
"Vsd" 4.480000000000003e-01
"Vsd" 4.640000000000003e-01
"PM0:s" 1.768730149658221e-06
"Vsd" 4.640000000000003e-01
"Vsd" 4.800000000000003e-01
"PM0:s" 1.789680605948714e-06
"Vsd" 4.800000000000003e-01
"Vsd" 4.960000000000003e-01
"PM0:s" 1.810667968505081e-06
"Vsd" 4.960000000000003e-01
"Vsd" 5.120000000000003e-01
"PM0:s" 1.831702174882025e-06
"Vsd" 5.120000000000003e-01
"Vsd" 5.280000000000004e-01
"PM0:s" 1.852791659393621e-06
"Vsd" 5.280000000000004e-01
"Vsd" 5.440000000000004e-01
"PM0:s" 1.873943610869333e-06
"Vsd" 5.440000000000004e-01
"Vsd" 5.600000000000004e-01
"PM0:s" 1.895164180568239e-06
"Vsd" 5.600000000000004e-01
"Vsd" 5.760000000000004e-01
"PM0:s" 1.916458650896648e-06
"Vsd" 5.760000000000004e-01
"Vsd" 5.920000000000004e-01
"PM0:s" 1.937831573099003e-06
"Vsd" 5.920000000000004e-01
"Vsd" 6.080000000000004e-01
"PM0:s" 1.959286880236780e-06
"Vsd" 6.080000000000004e-01
"Vsd" 6.240000000000004e-01
"PM0:s" 1.980827980368309e-06
"Vsd" 6.240000000000004e-01
"Vsd" 6.400000000000005e-01
"PM0:s" 2.002457833776582e-06
"Vsd" 6.400000000000005e-01
"Vsd" 6.560000000000005e-01
"PM0:s" 2.024179017275439e-06
"Vsd" 6.560000000000005e-01
"Vsd" 6.720000000000005e-01
"PM0:s" 2.045993777995476e-06
"Vsd" 6.720000000000005e-01
"Vsd" 6.880000000000005e-01
"PM0:s" 2.067904078562687e-06
"Vsd" 6.880000000000005e-01
"Vsd" 7.040000000000005e-01
"PM0:s" 2.089911635202199e-06
"Vsd" 7.040000000000005e-01
"Vsd" 7.200000000000005e-01
"PM0:s" 2.112017950000646e-06
"Vsd" 7.200000000000005e-01
"Vsd" 7.360000000000005e-01
"PM0:s" 2.134224338324994e-06
"Vsd" 7.360000000000005e-01
"Vsd" 7.520000000000006e-01
"PM0:s" 2.156531952208771e-06
"Vsd" 7.520000000000006e-01
"Vsd" 7.680000000000006e-01
"PM0:s" 2.178941800367645e-06
"Vsd" 7.680000000000006e-01
"Vsd" 7.840000000000006e-01
"PM0:s" 2.201454765387015e-06
"Vsd" 7.840000000000006e-01
"Vsd" 8.000000000000000e-01
"PM0:s" 2.224071618528382e-06
"Vsd" 8.000000000000000e-01
END
