HEADER
"PSFversion" "1.00"
"simulator" "spectre"
"version" "23.1.0.538.isr10"
"date" "5:49:19 PM, Mon Jun 15, 2026"
"design" "// Point Netlist Generated on: Jun 15 16:09:05 2026"
"analysis type" "dc"
"analysis name" "dc"
"analysis description" "DC Analysis `dc': Vsg = (0 -> 800e-03)"
"xVecSorted" "unsorted"
"tolerance.relative" 1.000000000000000e-03
"reltol" 1.000000000000000e-03
"abstol(V)" 1.000000000000000e-06
"abstol(I)" 1.000000000000000e-12
"temp" 2.700000000000000e+01
"tnom" 2.700000000000000e+01
"tempeffects" "all"
"gmindc" 1.000000000000000e-12
TYPE
"sweep" FLOAT DOUBLE PROP(
"key" "sweep"
)
"LogicV" FLOAT DOUBLE PROP(
"key" "node"
)
"V" FLOAT DOUBLE PROP(
"units" "V"
"key" "node"
"tolerance" 1.000000000000000e-06
)
"I" FLOAT DOUBLE PROP(
"units" "A"
"key" "branch"
"tolerance" 1.000000000000000e-12
)
"MMF" FLOAT DOUBLE PROP(
"units" "A*turn"
"key" "node"
"tolerance" 1.000000000000000e-12
)
"Wb" FLOAT DOUBLE PROP(
"units" "Wb"
"key" "node"
"tolerance" 1.000000000000000e-09
)
"Temp" FLOAT DOUBLE PROP(
"units" "C"
"key" "node"
"tolerance" 1.000000000000000e-04
)
"Pwr" FLOAT DOUBLE PROP(
"units" "W"
"key" "node"
"tolerance" 1.000000000000000e-09
)
"U" FLOAT DOUBLE PROP(
"units" ""
"key" "node"
"tolerance" 1.000000000000000e-06
)
"V/Sec" FLOAT DOUBLE PROP(
"units" "V/s"
"key" "node"
"tolerance" 9.999999999999999e-05
)
"I/Sec" FLOAT DOUBLE PROP(
"units" "A/s"
"key" "node"
"tolerance" 1.000000000000000e-06
)
"1/Sec" FLOAT DOUBLE PROP(
"units" "1/s"
"key" "node"
"tolerance" 9.999999999999999e-05
)
"HOD" FLOAT DOUBLE PROP(
"units" ""
"key" "node"
"tolerance" 1.000000000000000e-02
)
"Q" FLOAT DOUBLE PROP(
"units" "Coul"
"key" "node"
"tolerance" 1.000000000000000e-15
)
"Efield" FLOAT DOUBLE PROP(
"units" "V/m"
"key" "node"
"tolerance" 1.000000000000000e-06
"sigtype" "optical"
)
"param_real" FLOAT DOUBLE PROP(
"key" "parameters"
)
SWEEP
"Vsg" "sweep" PROP(
"sweep_direction" 0
"plot" 0
"grid" 1
)
TRACE
"Vsg" "param_real"
"PM0:s" "I"
"Vsd" "V"
"net3" "V"
"V3:p" "I"
"V8:p" "I"
VALUE
"Vsg" 0.000000000000000e+00
"Vsg" 0.000000000000000e+00
"PM0:s" 6.280097618842156e-12
"Vsd" 4.500000000000000e-01
"net3" 4.500000000000000e-01
"V3:p" -6.771971552097411e-12
"V8:p" 3.561065089825871e-14
"Vsg" 1.600000000000000e-02
"Vsg" 1.600000000000000e-02
"PM0:s" 1.165770465007039e-11
"Vsd" 4.500000000000000e-01
"net3" 4.340000000000000e-01
"V3:p" -1.214556410406651e-11
"V8:p" 3.249958092624775e-14
"Vsg" 3.200000000000000e-02
"Vsg" 3.200000000000000e-02
"PM0:s" 2.163943250149187e-11
"Vsd" 4.500000000000000e-01
"net3" 4.180000000000000e-01
"V3:p" -2.212351105077513e-11
"V8:p" 2.952241773966381e-14
"Vsg" 4.800000000000000e-02
"Vsg" 4.800000000000000e-02
"PM0:s" 4.016543246496236e-11
"Vsd" 4.500000000000000e-01
"net3" 4.020000000000000e-01
"V3:p" -4.064594216655280e-11
"V8:p" 2.666382206473977e-14
"Vsg" 6.400000000000000e-02
"Vsg" 6.400000000000000e-02
"PM0:s" 7.454371754088853e-11
"Vsd" 4.500000000000000e-01
"net3" 3.860000000000000e-01
"V3:p" -7.502085360861928e-11
"V8:p" 2.391285430926521e-14
"Vsg" 8.000000000000000e-02
"Vsg" 8.000000000000000e-02
"PM0:s" 1.383188855609665e-10
"Vsd" 4.500000000000000e-01
"net3" 3.700000000000000e-01
"V3:p" -1.387928271318158e-10
"V8:p" 2.125872560722294e-14
"Vsg" 9.600000000000000e-02
"Vsg" 9.600000000000000e-02
"PM0:s" 2.565601093740459e-10
"Vsd" 4.500000000000000e-01
"net3" 3.540000000000000e-01
"V3:p" -2.570310203775591e-10
"V8:p" 1.869034916496284e-14
"Vsg" 1.120000000000000e-01
"Vsg" 1.120000000000000e-01
"PM0:s" 4.755499890213983e-10
"Vsd" 4.500000000000000e-01
"net3" 3.380000000000000e-01
"V3:p" -4.760180194322572e-10
"V8:p" 1.619577400200273e-14
"Vsg" 1.280000000000000e-01
"Vsg" 1.280000000000000e-01
"PM0:s" 8.803389171289382e-10
"Vsd" 4.500000000000000e-01
"net3" 3.220000000000000e-01
"V3:p" -8.808042048042536e-10
"V8:p" 1.376113285101113e-14
"Vsg" 1.440000000000000e-01
"Vsg" 1.440000000000000e-01
"PM0:s" 1.625894279883562e-09
"Vsd" 4.500000000000000e-01
"net3" 3.060000000000000e-01
"V3:p" -1.626356953171123e-09
"V8:p" 1.136869402197821e-14
"Vsg" 1.600000000000000e-01
"Vsg" 1.600000000000000e-01
"PM0:s" 2.990269497579483e-09
"Vsd" 4.500000000000000e-01
"net3" 2.900000000000000e-01
"V3:p" -2.990729678682982e-09
"V8:p" 8.993489536917153e-15
"Vsg" 1.760000000000000e-01
"Vsg" 1.760000000000000e-01
"PM0:s" 5.459009828730307e-09
"Vsd" 4.500000000000000e-01
"net3" 2.740000000000000e-01
"V3:p" -5.459467637081965e-09
"V8:p" 6.598212031531964e-15
"Vsg" 1.920000000000001e-01
"Vsg" 1.920000000000001e-01
"PM0:s" 9.841910871657617e-09
"Vsd" 4.500000000000000e-01
"net3" 2.580000000000000e-01
"V3:p" -9.842366424685878e-09
"V8:p" 4.127312913469705e-15
"Vsg" 2.080000000000001e-01
"Vsg" 2.080000000000001e-01
"PM0:s" 1.739511359051285e-08
"Vsd" 4.500000000000000e-01
"net3" 2.419999999999999e-01
"V3:p" -1.739556699582873e-08
"V8:p" 1.503754466783495e-15
"Vsg" 2.240000000000001e-01
"Vsg" 2.240000000000001e-01
"PM0:s" 2.987687704384013e-08
"Vsd" 4.500000000000000e-01
"net3" 2.259999999999999e-01
"V3:p" -2.987732837376558e-08
"V8:p" -1.366868313647832e-15
"Vsg" 2.400000000000001e-01
"Vsg" 2.400000000000001e-01
"PM0:s" 4.945643401210699e-08
"Vsd" 4.500000000000000e-01
"net3" 2.099999999999999e-01
"V3:p" -4.945688325476521e-08
"V8:p" -4.584682160421520e-15
"Vsg" 2.560000000000001e-01
"Vsg" 2.560000000000001e-01
"PM0:s" 7.848128485601857e-08
"Vsd" 4.500000000000000e-01
"net3" 1.939999999999999e-01
"V3:p" -7.848173185178579e-08
"V8:p" -8.243527770284984e-15
"Vsg" 2.720000000000001e-01
"Vsg" 2.720000000000001e-01
"PM0:s" 1.192194675200595e-07
"Vsd" 4.500000000000000e-01
"net3" 1.779999999999999e-01
"V3:p" -1.192199119078338e-07
"V8:p" -1.242524931635851e-14
"Vsg" 2.880000000000001e-01
"Vsg" 2.880000000000001e-01
"PM0:s" 1.736912769546287e-07
"Vsd" 4.500000000000000e-01
"net3" 1.619999999999999e-01
"V3:p" -1.736917181507111e-07
"V8:p" -1.719994448786265e-14
"Vsg" 3.040000000000002e-01
"Vsg" 3.040000000000002e-01
"PM0:s" 2.436106225589614e-07
"Vsd" 4.500000000000000e-01
"net3" 1.459999999999999e-01
"V3:p" -2.436110597731994e-07
"V8:p" -2.262864384960282e-14
"Vsg" 3.200000000000002e-01
"Vsg" 3.200000000000002e-01
"PM0:s" 3.303910886582451e-07
"Vsd" 4.500000000000000e-01
"net3" 1.299999999999998e-01
"V3:p" -3.303915209354284e-07
"V8:p" -2.876625448652785e-14
"Vsg" 3.360000000000002e-01
"Vsg" 3.360000000000002e-01
"PM0:s" 4.351706289570489e-07
"Vsd" 4.500000000000000e-01
"net3" 1.139999999999998e-01
"V3:p" -4.351710552266852e-07
"V8:p" -3.566409486248050e-14
"Vsg" 3.520000000000002e-01
"Vsg" 3.520000000000002e-01
"PM0:s" 5.588332276606912e-07
"Vsd" 4.500000000000000e-01
"net3" 9.799999999999981e-02
"V3:p" -5.588336467822777e-07
"V8:p" -4.337184286116491e-14
"Vsg" 3.680000000000002e-01
"Vsg" 3.680000000000002e-01
"PM0:s" 7.020244738602432e-07
"Vsd" 4.500000000000000e-01
"net3" 8.199999999999980e-02
"V3:p" -7.020248846575161e-07
"V8:p" -5.193887811836689e-14
"Vsg" 3.840000000000002e-01
"Vsg" 3.840000000000002e-01
"PM0:s" 8.651648154504984e-07
"Vsd" 4.500000000000000e-01
"net3" 6.599999999999978e-02
"V3:p" -8.651652167331983e-07
"V8:p" -6.141511162081581e-14
"Vsg" 4.000000000000002e-01
"Vsg" 4.000000000000002e-01
"PM0:s" 1.048464207691098e-06
"Vsd" 4.500000000000000e-01
"net3" 4.999999999999977e-02
"V3:p" -1.048464598265692e-06
"V8:p" -7.185144867452415e-14
"Vsg" 4.160000000000003e-01
"Vsg" 4.160000000000003e-01
"PM0:s" 1.251939845843001e-06
"Vsd" 4.500000000000000e-01
"net3" 3.399999999999975e-02
"V3:p" -1.251940224514981e-06
"V8:p" -8.330003151478594e-14
"Vsg" 4.320000000000003e-01
"Vsg" 4.320000000000003e-01
"PM0:s" 1.475436938664233e-06
"Vsd" 4.500000000000000e-01
"net3" 1.799999999999974e-02
"V3:p" -1.475437304234618e-06
"V8:p" -9.581446315097045e-14
"Vsg" 4.480000000000003e-01
"Vsg" 4.480000000000003e-01
"PM0:s" 1.718651546676882e-06
"Vsd" 4.500000000000000e-01
"net3" 1.999999999999724e-03
"V3:p" -1.718651897932306e-06
"V8:p" -1.094529513306585e-13
"Vsg" 4.640000000000003e-01
"Vsg" 4.640000000000003e-01
"PM0:s" 1.981154217131591e-06
"Vsd" 4.500000000000000e-01
"net3" -1.400000000000029e-02
"V3:p" -1.981154552792085e-06
"V8:p" -1.243190810335839e-13
"Vsg" 4.800000000000003e-01
"Vsg" 4.800000000000003e-01
"PM0:s" 2.262413227942875e-06
"Vsd" 4.500000000000000e-01
"net3" -3.000000000000030e-02
"V3:p" -2.262413546643631e-06
"V8:p" -1.405275036052639e-13
"Vsg" 4.960000000000003e-01
"Vsg" 4.960000000000003e-01
"PM0:s" 2.561816501174888e-06
"Vsd" 4.500000000000000e-01
"net3" -4.600000000000032e-02
"V3:p" -2.561816801508972e-06
"V8:p" -1.581433910606390e-13
"Vsg" 5.120000000000003e-01
"Vsg" 5.120000000000003e-01
"PM0:s" 2.878691540098359e-06
"Vsd" 4.500000000000000e-01
"net3" -6.200000000000033e-02
"V3:p" -2.878691820614666e-06
"V8:p" -1.772279931771537e-13
"Vsg" 5.280000000000004e-01
"Vsg" 5.280000000000004e-01
"PM0:s" 3.212323018358435e-06
"Vsd" 4.500000000000000e-01
"net3" -7.800000000000035e-02
"V3:p" -3.212323277555215e-06
"V8:p" -1.978440202860557e-13
"Vsg" 5.440000000000004e-01
"Vsg" 5.440000000000004e-01
"PM0:s" 3.561967876966387e-06
"Vsd" 4.500000000000000e-01
"net3" -9.400000000000036e-02
"V3:p" -3.561968113285478e-06
"V8:p" -2.200558927361462e-13
"Vsg" 5.600000000000004e-01
"Vsg" 5.600000000000004e-01
"PM0:s" 3.926867956283378e-06
"Vsd" 4.500000000000000e-01
"net3" -1.100000000000004e-01
"V3:p" -3.926868168105224e-06
"V8:p" -2.439298350205460e-13
"Vsg" 5.760000000000004e-01
"Vsg" 5.760000000000004e-01
"PM0:s" 4.306260308261547e-06
"Vsd" 4.500000000000000e-01
"net3" -1.260000000000004e-01
"V3:p" -4.306260493900888e-06
"V8:p" -2.695339644070365e-13
"Vsg" 5.920000000000004e-01
"Vsg" 5.920000000000004e-01
"PM0:s" 4.699385406557337e-06
"Vsd" 4.500000000000000e-01
"net3" -1.420000000000004e-01
"V3:p" -4.699385564259439e-06
"V8:p" -2.969383850366229e-13
"Vsg" 6.080000000000004e-01
"Vsg" 6.080000000000004e-01
"PM0:s" 5.105493508307790e-06
"Vsd" 4.500000000000000e-01
"net3" -1.580000000000004e-01
"V3:p" -5.105493636245080e-06
"V8:p" -3.262152876091539e-13
"Vsg" 6.240000000000004e-01
"Vsg" 6.240000000000004e-01
"PM0:s" 5.523849430943322e-06
"Vsd" 4.500000000000000e-01
"net3" -1.740000000000004e-01
"V3:p" -5.523849527212321e-06
"V8:p" -3.574390535084198e-13
"Vsg" 6.400000000000005e-01
"Vsg" 6.400000000000005e-01
"PM0:s" 5.953735998896202e-06
"Vsd" 4.500000000000000e-01
"net3" -1.900000000000004e-01
"V3:p" -5.953736061514649e-06
"V8:p" -3.906863622787928e-13
"Vsg" 6.560000000000005e-01
"Vsg" 6.560000000000005e-01
"PM0:s" 6.394456395381757e-06
"Vsd" 4.500000000000000e-01
"net3" -2.060000000000005e-01
"V3:p" -6.394456422285863e-06
"V8:p" -4.260363016552261e-13
"Vsg" 6.720000000000005e-01
"Vsg" 6.720000000000005e-01
"PM0:s" 6.845335628842935e-06
"Vsd" 4.500000000000000e-01
"net3" -2.220000000000005e-01
"V3:p" -6.845335617884680e-06
"V8:p" -4.635704796504436e-13
"Vsg" 6.880000000000005e-01
"Vsg" 6.880000000000005e-01
"PM0:s" 7.305721295907512e-06
"Vsd" 4.500000000000000e-01
"net3" -2.380000000000005e-01
"V3:p" -7.305721244851955e-06
"V8:p" -5.033731384638180e-13
"Vsg" 7.040000000000005e-01
"Vsg" 7.040000000000005e-01
"PM0:s" 7.774983795293777e-06
"Vsd" 4.500000000000000e-01
"net3" -2.540000000000005e-01
"V3:p" -7.774983701816334e-06
"V8:p" -5.455312701839927e-13
"Vsg" 7.200000000000005e-01
"Vsg" 7.200000000000005e-01
"PM0:s" 8.252516121525165e-06
"Vsd" 4.500000000000000e-01
"net3" -2.700000000000005e-01
"V3:p" -8.252515983208827e-06
"V8:p" -5.901347344155397e-13
"Vsg" 7.360000000000005e-01
"Vsg" 7.360000000000005e-01
"PM0:s" 8.737733344374365e-06
"Vsd" 4.500000000000000e-01
"net3" -2.860000000000005e-01
"V3:p" -8.737733158706818e-06
"V8:p" -6.372763780736566e-13
"Vsg" 7.520000000000006e-01
"Vsg" 7.520000000000006e-01
"PM0:s" 9.230071859966367e-06
"Vsd" 4.500000000000000e-01
"net3" -3.020000000000005e-01
"V3:p" -9.230071624337034e-06
"V8:p" -6.870521576725281e-13
"Vsg" 7.680000000000006e-01
"Vsg" 7.680000000000006e-01
"PM0:s" 9.728988482426661e-06
"Vsd" 4.500000000000000e-01
"net3" -3.180000000000006e-01
"V3:p" -9.728988194123612e-06
"V8:p" -7.395612644857217e-13
"Vsg" 7.840000000000006e-01
"Vsg" 7.840000000000006e-01
"PM0:s" 1.023395943068269e-05
"Vsd" 4.500000000000000e-01
"net3" -3.340000000000006e-01
"V3:p" -1.023395908688942e-05
"V8:p" -7.949062529928525e-13
"Vsg" 8.000000000000000e-01
"Vsg" 8.000000000000000e-01
"PM0:s" 1.074447925323206e-05
"Vsd" 4.500000000000000e-01
"net3" -3.500000000000000e-01
"V3:p" -1.074447885102417e-05
"V8:p" -8.531931730481225e-13
END
