HEADER
"PSFversion" "1.00"
"simulator" "spectre"
"version" "23.1.0.538.isr10"
"date" "6:04:41 PM, Mon Jun 15, 2026"
"design" "// Point Netlist Generated on: Jun 15 15:56:53 2026"
"analysis type" "dc"
"analysis name" "dc"
"analysis description" "DC Analysis `dc': Vgs = (0 -> 800e-03)"
"xVecSorted" "unsorted"
"tolerance.relative" 1.000000000000000e-03
"reltol" 1.000000000000000e-03
"abstol(V)" 1.000000000000000e-06
"abstol(I)" 1.000000000000000e-12
"temp" 2.700000000000000e+01
"tnom" 2.700000000000000e+01
"tempeffects" "all"
"gmindc" 1.000000000000000e-12
TYPE
"sweep" FLOAT DOUBLE PROP(
"key" "sweep"
)
"LogicV" FLOAT DOUBLE PROP(
"key" "node"
)
"V" FLOAT DOUBLE PROP(
"units" "V"
"key" "node"
"tolerance" 1.000000000000000e-06
)
"I" FLOAT DOUBLE PROP(
"units" "A"
"key" "branch"
"tolerance" 1.000000000000000e-12
)
"MMF" FLOAT DOUBLE PROP(
"units" "A*turn"
"key" "node"
"tolerance" 1.000000000000000e-12
)
"Wb" FLOAT DOUBLE PROP(
"units" "Wb"
"key" "node"
"tolerance" 1.000000000000000e-09
)
"Temp" FLOAT DOUBLE PROP(
"units" "C"
"key" "node"
"tolerance" 1.000000000000000e-04
)
"Pwr" FLOAT DOUBLE PROP(
"units" "W"
"key" "node"
"tolerance" 1.000000000000000e-09
)
"U" FLOAT DOUBLE PROP(
"units" ""
"key" "node"
"tolerance" 1.000000000000000e-06
)
"V/Sec" FLOAT DOUBLE PROP(
"units" "V/s"
"key" "node"
"tolerance" 9.999999999999999e-05
)
"I/Sec" FLOAT DOUBLE PROP(
"units" "A/s"
"key" "node"
"tolerance" 1.000000000000000e-06
)
"1/Sec" FLOAT DOUBLE PROP(
"units" "1/s"
"key" "node"
"tolerance" 9.999999999999999e-05
)
"HOD" FLOAT DOUBLE PROP(
"units" ""
"key" "node"
"tolerance" 1.000000000000000e-02
)
"Q" FLOAT DOUBLE PROP(
"units" "Coul"
"key" "node"
"tolerance" 1.000000000000000e-15
)
"Efield" FLOAT DOUBLE PROP(
"units" "V/m"
"key" "node"
"tolerance" 1.000000000000000e-06
"sigtype" "optical"
)
SWEEP
"Vgs" "sweep" PROP(
"sweep_direction" 0
"plot" 0
"grid" 1
)
TRACE
"NM1:d" "I"
"Vgs" "V"
VALUE
"Vgs" 0.000000000000000e+00
"NM1:d" 8.151437344353776e-10
"Vgs" 0.000000000000000e+00
"Vgs" 1.600000000000000e-02
"NM1:d" 1.122867158820587e-09
"Vgs" 1.600000000000000e-02
"Vgs" 3.200000000000000e-02
"NM1:d" 1.589912277987420e-09
"Vgs" 3.200000000000000e-02
"Vgs" 4.800000000000000e-02
"NM1:d" 2.294850809918236e-09
"Vgs" 4.800000000000000e-02
"Vgs" 6.400000000000000e-02
"NM1:d" 3.354423800066419e-09
"Vgs" 6.400000000000000e-02
"Vgs" 8.000000000000000e-02
"NM1:d" 4.941258660470841e-09
"Vgs" 8.000000000000000e-02
"Vgs" 9.600000000000000e-02
"NM1:d" 7.308820570254537e-09
"Vgs" 9.600000000000000e-02
"Vgs" 1.120000000000000e-01
"NM1:d" 1.082539411235796e-08
"Vgs" 1.120000000000000e-01
"Vgs" 1.280000000000000e-01
"NM1:d" 1.601798808510676e-08
"Vgs" 1.280000000000000e-01
"Vgs" 1.440000000000000e-01
"NM1:d" 2.362443253836222e-08
"Vgs" 1.440000000000000e-01
"Vgs" 1.600000000000000e-01
"NM1:d" 3.464679094204852e-08
"Vgs" 1.600000000000000e-01
"Vgs" 1.760000000000000e-01
"NM1:d" 5.039203766687005e-08
"Vgs" 1.760000000000000e-01
"Vgs" 1.920000000000001e-01
"NM1:d" 7.248044340590023e-08
"Vgs" 1.920000000000001e-01
"Vgs" 2.080000000000001e-01
"NM1:d" 1.028050424885795e-07
"Vgs" 2.080000000000001e-01
"Vgs" 2.240000000000001e-01
"NM1:d" 1.434409614239637e-07
"Vgs" 2.240000000000001e-01
"Vgs" 2.400000000000001e-01
"NM1:d" 1.965245530331809e-07
"Vgs" 2.400000000000001e-01
"Vgs" 2.560000000000001e-01
"NM1:d" 2.641342214416321e-07
"Vgs" 2.560000000000001e-01
"Vgs" 2.720000000000001e-01
"NM1:d" 3.481992001794105e-07
"Vgs" 2.720000000000001e-01
"Vgs" 2.880000000000001e-01
"NM1:d" 4.504460158950815e-07
"Vgs" 2.880000000000001e-01
"Vgs" 3.040000000000002e-01
"NM1:d" 5.723776135785686e-07
"Vgs" 3.040000000000002e-01
"Vgs" 3.200000000000002e-01
"NM1:d" 7.152737350015245e-07
"Vgs" 3.200000000000002e-01
"Vgs" 3.360000000000002e-01
"NM1:d" 8.802018474224117e-07
"Vgs" 3.360000000000002e-01
"Vgs" 3.520000000000002e-01
"NM1:d" 1.068031577774838e-06
"Vgs" 3.520000000000002e-01
"Vgs" 3.680000000000002e-01
"NM1:d" 1.279449184763572e-06
"Vgs" 3.680000000000002e-01
"Vgs" 3.840000000000002e-01
"NM1:d" 1.514970959624393e-06
"Vgs" 3.840000000000002e-01
"Vgs" 4.000000000000002e-01
"NM1:d" 1.774955610842941e-06
"Vgs" 4.000000000000002e-01
"Vgs" 4.160000000000003e-01
"NM1:d" 2.059616066141253e-06
"Vgs" 4.160000000000003e-01
"Vgs" 4.320000000000003e-01
"NM1:d" 2.369031104169358e-06
"Vgs" 4.320000000000003e-01
"Vgs" 4.480000000000003e-01
"NM1:d" 2.703157056937580e-06
"Vgs" 4.480000000000003e-01
"Vgs" 4.640000000000003e-01
"NM1:d" 3.061839601561070e-06
"Vgs" 4.640000000000003e-01
"Vgs" 4.800000000000003e-01
"NM1:d" 3.444825780060326e-06
"Vgs" 4.800000000000003e-01
"Vgs" 4.960000000000003e-01
"NM1:d" 3.851775932201516e-06
"Vgs" 4.960000000000003e-01
"Vgs" 5.120000000000003e-01
"NM1:d" 4.282275266242447e-06
"Vgs" 5.120000000000003e-01
"Vgs" 5.280000000000004e-01
"NM1:d" 4.735845058888488e-06
"Vgs" 5.280000000000004e-01
"Vgs" 5.440000000000004e-01
"NM1:d" 5.211953273379496e-06
"Vgs" 5.440000000000004e-01
"Vgs" 5.600000000000004e-01
"NM1:d" 5.710024463762163e-06
"Vgs" 5.600000000000004e-01
"Vgs" 5.760000000000004e-01
"NM1:d" 6.229448874637736e-06
"Vgs" 5.760000000000004e-01
"Vgs" 5.920000000000004e-01
"NM1:d" 6.769590681982760e-06
"Vgs" 5.920000000000004e-01
"Vgs" 6.080000000000004e-01
"NM1:d" 7.329795353199154e-06
"Vgs" 6.080000000000004e-01
"Vgs" 6.240000000000004e-01
"NM1:d" 7.909396132051598e-06
"Vgs" 6.240000000000004e-01
"Vgs" 6.400000000000005e-01
"NM1:d" 8.507719676189248e-06
"Vgs" 6.400000000000005e-01
"Vgs" 6.560000000000005e-01
"NM1:d" 9.124090891647700e-06
"Vgs" 6.560000000000005e-01
"Vgs" 6.720000000000005e-01
"NM1:d" 9.757837020296718e-06
"Vgs" 6.720000000000005e-01
"Vgs" 6.880000000000005e-01
"NM1:d" 1.040829104288399e-05
"Vgs" 6.880000000000005e-01
"Vgs" 7.040000000000005e-01
"NM1:d" 1.107479446303299e-05
"Vgs" 7.040000000000005e-01
"Vgs" 7.200000000000005e-01
"NM1:d" 1.175669953781889e-05
"Vgs" 7.200000000000005e-01
"Vgs" 7.360000000000005e-01
"NM1:d" 1.245337101911792e-05
"Vgs" 7.360000000000005e-01
"Vgs" 7.520000000000006e-01
"NM1:d" 1.316418746690915e-05
"Vgs" 7.520000000000006e-01
"Vgs" 7.680000000000006e-01
"NM1:d" 1.388854219157807e-05
"Vgs" 7.680000000000006e-01
"Vgs" 7.840000000000006e-01
"NM1:d" 1.462584387753099e-05
"Vgs" 7.840000000000006e-01
"Vgs" 8.000000000000000e-01
"NM1:d" 1.537551693542029e-05
"Vgs" 8.000000000000000e-01
END
