HEADER
"PSFversion" "1.00"
"simulator" "spectre"
"version" "23.1.0.538.isr10"
"date" "8:28:11 PM, Mon Jun 22, 2026"
"design" "// Point Netlist Generated on: Jun 15 15:08:18 2026"
"analysis type" "dc"
"analysis name" "dc"
"analysis description" "DC Analysis `dc': Vds = (1e-03 -> 800e-03)"
"xVecSorted" "unsorted"
"tolerance.relative" 1.000000000000000e-03
"reltol" 1.000000000000000e-03
"abstol(V)" 1.000000000000000e-06
"abstol(I)" 1.000000000000000e-12
"temp" 2.700000000000000e+01
"tnom" 2.700000000000000e+01
"tempeffects" "all"
"gmindc" 1.000000000000000e-12
TYPE
"sweep" FLOAT DOUBLE PROP(
"key" "sweep"
)
"LogicV" FLOAT DOUBLE PROP(
"key" "node"
)
"V" FLOAT DOUBLE PROP(
"units" "V"
"key" "node"
"tolerance" 1.000000000000000e-06
)
"I" FLOAT DOUBLE PROP(
"units" "A"
"key" "branch"
"tolerance" 1.000000000000000e-12
)
"MMF" FLOAT DOUBLE PROP(
"units" "A*turn"
"key" "node"
"tolerance" 1.000000000000000e-12
)
"Wb" FLOAT DOUBLE PROP(
"units" "Wb"
"key" "node"
"tolerance" 1.000000000000000e-09
)
"Temp" FLOAT DOUBLE PROP(
"units" "C"
"key" "node"
"tolerance" 1.000000000000000e-04
)
"Pwr" FLOAT DOUBLE PROP(
"units" "W"
"key" "node"
"tolerance" 1.000000000000000e-09
)
"U" FLOAT DOUBLE PROP(
"units" ""
"key" "node"
"tolerance" 1.000000000000000e-06
)
"V/Sec" FLOAT DOUBLE PROP(
"units" "V/s"
"key" "node"
"tolerance" 9.999999999999999e-05
)
"I/Sec" FLOAT DOUBLE PROP(
"units" "A/s"
"key" "node"
"tolerance" 1.000000000000000e-06
)
"1/Sec" FLOAT DOUBLE PROP(
"units" "1/s"
"key" "node"
"tolerance" 9.999999999999999e-05
)
"HOD" FLOAT DOUBLE PROP(
"units" ""
"key" "node"
"tolerance" 1.000000000000000e-02
)
"Q" FLOAT DOUBLE PROP(
"units" "Coul"
"key" "node"
"tolerance" 1.000000000000000e-15
)
"Efield" FLOAT DOUBLE PROP(
"units" "V/m"
"key" "node"
"tolerance" 1.000000000000000e-06
"sigtype" "optical"
)
SWEEP
"Vds" "sweep" PROP(
"sweep_direction" 0
"plot" 0
"grid" 3
)
TRACE
"M0:d" "I"
"Vds" "V"
VALUE
"Vds" 1.000000000000000e-03
"M0:d" 3.036533377856536e-07
"Vds" 1.000000000000000e-03
"Vds" 1.143040976988106e-03
"M0:d" 3.470448091095887e-07
"Vds" 1.143040976988106e-03
"Vds" 1.306542675073923e-03
"M0:d" 3.966295945979966e-07
"Vds" 1.306542675073923e-03
"Vds" 1.493431815793151e-03
"M0:d" 4.532894163578865e-07
"Vds" 1.493431815793151e-03
"Vds" 1.707053761789324e-03
"M0:d" 5.180308098981905e-07
"Vds" 1.707053761789324e-03
"Vds" 1.951232399646890e-03
"M0:d" 5.920025603773148e-07
"Vds" 1.951232399646890e-03
"Vds" 2.230338588423227e-03
"M0:d" 6.765154960931592e-07
"Vds" 2.230338588423227e-03
"Vds" 2.549368399125558e-03
"M0:d" 7.730649291492155e-07
"Vds" 2.549368399125558e-03
"Vds" 2.914032545639081e-03
"M0:d" 8.833560570205725e-07
"Vds" 2.914032545639081e-03
"Vds" 3.330858607942432e-03
"M0:d" 1.009332658444626e-06
"Vds" 3.330858607942432e-03
"Vds" 3.807307877431759e-03
"M0:d" 1.153209428446995e-06
"Vds" 3.807307877431759e-03
"Vds" 4.351908915914110e-03
"M0:d" 1.317508293473041e-06
"Vds" 4.351908915914110e-03
"Vds" 4.974410219009713e-03
"M0:d" 1.505099017234960e-06
"Vds" 4.974410219009713e-03
"Vds" 5.685954716676479e-03
"M0:d" 1.719244332449670e-06
"Vds" 5.685954716676479e-03
"Vds" 6.499279234460011e-03
"M0:d" 1.963649682392622e-06
"Vds" 6.499279234460011e-03
"Vds" 7.428942485875680e-03
"M0:d" 2.242517377627242e-06
"Vds" 7.428942485875680e-03
"Vds" 8.491585677043785e-03
"M0:d" 2.560604480060542e-06
"Vds" 8.491585677043785e-03
"Vds" 9.706230388466333e-03
"M0:d" 2.923282868447270e-06
"Vds" 9.706230388466333e-03
"Vds" 1.109461906610420e-02
"M0:d" 3.336598454458237e-06
"Vds" 1.109461906610420e-02
"Vds" 1.268160421663061e-02
"M0:d" 3.807323941128836e-06
"Vds" 1.268160421663061e-02
"Vds" 1.449559327355394e-02
"M0:d" 4.342995004965792e-06
"Vds" 1.449559327355394e-02
"Vds" 1.656905709742531e-02
"M0:d" 4.951911789128640e-06
"Vds" 1.656905709742531e-02
"Vds" 1.893911121241273e-02
"M0:d" 5.643073199487889e-06
"Vds" 1.893911121241273e-02
"Vds" 2.164818018352264e-02
"M0:d" 6.425985082039087e-06
"Vds" 2.164818018352264e-02
"Vds" 2.474475702698827e-02
"M0:d" 7.310233903896668e-06
"Vds" 2.474475702698827e-02
"Vds" 2.828427124746197e-02
"M0:d" 8.304623156244561e-06
"Vds" 2.828427124746197e-02
"Vds" 3.233008104009552e-02
"M0:d" 9.415487359677646e-06
"Vds" 3.233008104009552e-02
"Vds" 3.695460741817542e-02
"M0:d" 1.064345092483413e-05
"Vds" 3.695460741817542e-02
"Vds" 4.224063056748313e-02
"M0:d" 1.197729477886137e-05
"Vds" 4.224063056748313e-02
"Vds" 4.828277163244957e-02
"M0:d" 1.338292772830492e-05
"Vds" 4.828277163244957e-02
"Vds" 5.518918645844875e-02
"M0:d" 1.478693934118831e-05
"Vds" 5.518918645844875e-02
"Vds" 6.308350160864400e-02
"M0:d" 1.606723046303320e-05
"Vds" 6.308350160864400e-02
"Vds" 7.210702731057518e-02
"M0:d" 1.709504529835167e-05
"Vds" 7.210702731057518e-02
"Vds" 8.242128694478788e-02
"M0:d" 1.783808770146871e-05
"Vds" 8.242128694478788e-02
"Vds" 9.421090835398735e-02
"M0:d" 1.837813686809706e-05
"Vds" 9.421090835398735e-02
"Vds" 1.076869287278786e-01
"M0:d" 1.881502564869693e-05
"Vds" 1.076869287278786e-01
"Vds" 1.230905722219629e-01
"M0:d" 1.921396447682460e-05
"Vds" 1.230905722219629e-01
"Vds" 1.406975679306174e-01
"M0:d" 1.960987241175930e-05
"Vds" 1.406975679306174e-01
"Vds" 1.608230855072633e-01
"M0:d" 2.002119430874935e-05
"Vds" 1.608230855072633e-01
"Vds" 1.838273767804639e-01
"M0:d" 2.045855642951271e-05
"Vds" 1.838273767804639e-01
"Vds" 2.101222243523021e-01
"M0:d" 2.092906736880386e-05
"Vds" 2.101222243523021e-01
"Vds" 2.401783126105694e-01
"M0:d" 2.143840616551892e-05
"Vds" 2.401783126105694e-01
"Vds" 2.745336530977399e-01
"M0:d" 2.199189516112371e-05
"Vds" 2.745336530977399e-01
"Vds" 3.138032150529543e-01
"M0:d" 2.259510810593394e-05
"Vds" 3.138032150529543e-01
"Vds" 3.586899335161376e-01
"M0:d" 2.325426042493518e-05
"Vds" 3.586899335161376e-01
"Vds" 4.099972920420846e-01
"M0:d" 2.397649657258982e-05
"Vds" 4.099972920420846e-01
"Vds" 4.686437052582622e-01
"M0:d" 2.477013166850217e-05
"Vds" 4.686437052582622e-01
"Vds" 5.356789587177299e-01
"M0:d" 2.564487826175204e-05
"Vds" 5.356789587177299e-01
"Vds" 6.123030003246851e-01
"M0:d" 2.661207635935904e-05
"Vds" 6.123030003246851e-01
"Vds" 6.998874197038765e-01
"M0:d" 2.768493838295725e-05
"Vds" 6.998874197038765e-01
"Vds" 8.000000000000000e-01
"M0:d" 2.887881728661204e-05
"Vds" 8.000000000000000e-01
END
