HEADER
"PSFversion" "1.00"
"simulator" "spectre"
"version" "23.1.0.538.isr10"
"date" "6:04:32 PM, Mon Jun 15, 2026"
"design" "// Point Netlist Generated on: Jun 15 15:13:39 2026"
"analysis type" "dc"
"analysis name" "dc"
"analysis description" "DC Analysis `dc': Vgs = (0 -> 800e-03)"
"xVecSorted" "unsorted"
"tolerance.relative" 1.000000000000000e-03
"reltol" 1.000000000000000e-03
"abstol(V)" 1.000000000000000e-06
"abstol(I)" 1.000000000000000e-12
"temp" 2.700000000000000e+01
"tnom" 2.700000000000000e+01
"tempeffects" "all"
"gmindc" 1.000000000000000e-12
TYPE
"sweep" FLOAT DOUBLE PROP(
"key" "sweep"
)
"LogicV" FLOAT DOUBLE PROP(
"key" "node"
)
"V" FLOAT DOUBLE PROP(
"units" "V"
"key" "node"
"tolerance" 1.000000000000000e-06
)
"I" FLOAT DOUBLE PROP(
"units" "A"
"key" "branch"
"tolerance" 1.000000000000000e-12
)
"MMF" FLOAT DOUBLE PROP(
"units" "A*turn"
"key" "node"
"tolerance" 1.000000000000000e-12
)
"Wb" FLOAT DOUBLE PROP(
"units" "Wb"
"key" "node"
"tolerance" 1.000000000000000e-09
)
"Temp" FLOAT DOUBLE PROP(
"units" "C"
"key" "node"
"tolerance" 1.000000000000000e-04
)
"Pwr" FLOAT DOUBLE PROP(
"units" "W"
"key" "node"
"tolerance" 1.000000000000000e-09
)
"U" FLOAT DOUBLE PROP(
"units" ""
"key" "node"
"tolerance" 1.000000000000000e-06
)
"V/Sec" FLOAT DOUBLE PROP(
"units" "V/s"
"key" "node"
"tolerance" 9.999999999999999e-05
)
"I/Sec" FLOAT DOUBLE PROP(
"units" "A/s"
"key" "node"
"tolerance" 1.000000000000000e-06
)
"1/Sec" FLOAT DOUBLE PROP(
"units" "1/s"
"key" "node"
"tolerance" 9.999999999999999e-05
)
"HOD" FLOAT DOUBLE PROP(
"units" ""
"key" "node"
"tolerance" 1.000000000000000e-02
)
"Q" FLOAT DOUBLE PROP(
"units" "Coul"
"key" "node"
"tolerance" 1.000000000000000e-15
)
"Efield" FLOAT DOUBLE PROP(
"units" "V/m"
"key" "node"
"tolerance" 1.000000000000000e-06
"sigtype" "optical"
)
SWEEP
"Vgs" "sweep" PROP(
"sweep_direction" 0
"plot" 0
"grid" 1
)
TRACE
"M0:d" "I"
"Vgs" "V"
VALUE
"Vgs" 0.000000000000000e+00
"M0:d" 2.946117040061764e-12
"Vgs" 0.000000000000000e+00
"Vgs" 1.600000000000000e-02
"M0:d" 4.648692554132988e-12
"Vgs" 1.600000000000000e-02
"Vgs" 3.200000000000000e-02
"M0:d" 7.512574927324278e-12
"Vgs" 3.200000000000000e-02
"Vgs" 4.800000000000000e-02
"M0:d" 1.232987464994932e-11
"Vgs" 4.800000000000000e-02
"Vgs" 6.400000000000000e-02
"M0:d" 2.043298157754553e-11
"Vgs" 6.400000000000000e-02
"Vgs" 8.000000000000000e-02
"M0:d" 3.406306521723911e-11
"Vgs" 8.000000000000000e-02
"Vgs" 9.600000000000000e-02
"M0:d" 5.698988670580169e-11
"Vgs" 9.600000000000000e-02
"Vgs" 1.120000000000000e-01
"M0:d" 9.555427565620320e-11
"Vgs" 1.120000000000000e-01
"Vgs" 1.280000000000000e-01
"M0:d" 1.604213753021404e-10
"Vgs" 1.280000000000000e-01
"Vgs" 1.440000000000000e-01
"M0:d" 2.695289248956154e-10
"Vgs" 1.440000000000000e-01
"Vgs" 1.600000000000000e-01
"M0:d" 4.530441793554425e-10
"Vgs" 1.600000000000000e-01
"Vgs" 1.760000000000000e-01
"M0:d" 7.616952278124008e-10
"Vgs" 1.760000000000000e-01
"Vgs" 1.920000000000001e-01
"M0:d" 1.280766177229696e-09
"Vgs" 1.920000000000001e-01
"Vgs" 2.080000000000001e-01
"M0:d" 2.153585074789711e-09
"Vgs" 2.080000000000001e-01
"Vgs" 2.240000000000001e-01
"M0:d" 3.620882461654535e-09
"Vgs" 2.240000000000001e-01
"Vgs" 2.400000000000001e-01
"M0:d" 6.086572653481555e-09
"Vgs" 2.400000000000001e-01
"Vgs" 2.560000000000001e-01
"M0:d" 1.022721412986035e-08
"Vgs" 2.560000000000001e-01
"Vgs" 2.720000000000001e-01
"M0:d" 1.717280389289362e-08
"Vgs" 2.720000000000001e-01
"Vgs" 2.880000000000001e-01
"M0:d" 2.880165111463197e-08
"Vgs" 2.880000000000001e-01
"Vgs" 3.040000000000002e-01
"M0:d" 4.821105743249466e-08
"Vgs" 3.040000000000002e-01
"Vgs" 3.200000000000002e-01
"M0:d" 8.044109272910575e-08
"Vgs" 3.200000000000002e-01
"Vgs" 3.360000000000002e-01
"M0:d" 1.335160794861566e-07
"Vgs" 3.360000000000002e-01
"Vgs" 3.520000000000002e-01
"M0:d" 2.197668680549533e-07
"Vgs" 3.520000000000002e-01
"Vgs" 3.680000000000002e-01
"M0:d" 3.571041724930733e-07
"Vgs" 3.680000000000002e-01
"Vgs" 3.840000000000002e-01
"M0:d" 5.693752132216330e-07
"Vgs" 3.840000000000002e-01
"Vgs" 4.000000000000002e-01
"M0:d" 8.844652933653671e-07
"Vgs" 4.000000000000002e-01
"Vgs" 4.160000000000003e-01
"M0:d" 1.329386458628811e-06
"Vgs" 4.160000000000003e-01
"Vgs" 4.320000000000003e-01
"M0:d" 1.923944327637565e-06
"Vgs" 4.320000000000003e-01
"Vgs" 4.480000000000003e-01
"M0:d" 2.676798748322269e-06
"Vgs" 4.480000000000003e-01
"Vgs" 4.640000000000003e-01
"M0:d" 3.586380355441960e-06
"Vgs" 4.640000000000003e-01
"Vgs" 4.800000000000003e-01
"M0:d" 4.645092585361284e-06
"Vgs" 4.800000000000003e-01
"Vgs" 4.960000000000003e-01
"M0:d" 5.843404232790249e-06
"Vgs" 4.960000000000003e-01
"Vgs" 5.120000000000003e-01
"M0:d" 7.172035319780305e-06
"Vgs" 5.120000000000003e-01
"Vgs" 5.280000000000004e-01
"M0:d" 8.622486171499914e-06
"Vgs" 5.280000000000004e-01
"Vgs" 5.440000000000004e-01
"M0:d" 1.018682450048451e-05
"Vgs" 5.440000000000004e-01
"Vgs" 5.600000000000004e-01
"M0:d" 1.185736967241356e-05
"Vgs" 5.600000000000004e-01
"Vgs" 5.760000000000004e-01
"M0:d" 1.362651177852456e-05
"Vgs" 5.760000000000004e-01
"Vgs" 5.920000000000004e-01
"M0:d" 1.548667892776706e-05
"Vgs" 5.920000000000004e-01
"Vgs" 6.080000000000004e-01
"M0:d" 1.743039580951606e-05
"Vgs" 6.080000000000004e-01
"Vgs" 6.240000000000004e-01
"M0:d" 1.945037725376045e-05
"Vgs" 6.240000000000004e-01
"Vgs" 6.400000000000005e-01
"M0:d" 2.153962042727510e-05
"Vgs" 6.400000000000005e-01
"Vgs" 6.560000000000005e-01
"M0:d" 2.369147786139785e-05
"Vgs" 6.560000000000005e-01
"Vgs" 6.720000000000005e-01
"M0:d" 2.589970580393736e-05
"Vgs" 6.720000000000005e-01
"Vgs" 6.880000000000005e-01
"M0:d" 2.815848907764465e-05
"Vgs" 6.880000000000005e-01
"Vgs" 7.040000000000005e-01
"M0:d" 3.046244654817173e-05
"Vgs" 7.040000000000005e-01
"Vgs" 7.200000000000005e-01
"M0:d" 3.280662205445092e-05
"Vgs" 7.200000000000005e-01
"Vgs" 7.360000000000005e-01
"M0:d" 3.518646531918719e-05
"Vgs" 7.360000000000005e-01
"Vgs" 7.520000000000006e-01
"M0:d" 3.759780658408141e-05
"Vgs" 7.520000000000006e-01
"Vgs" 7.680000000000006e-01
"M0:d" 4.003682785140555e-05
"Vgs" 7.680000000000006e-01
"Vgs" 7.840000000000006e-01
"M0:d" 4.250003282546852e-05
"Vgs" 7.840000000000006e-01
"Vgs" 8.000000000000000e-01
"M0:d" 4.498421699620485e-05
"Vgs" 8.000000000000000e-01
END
