HEADER
"PSFversion" "1.00"
"simulator" "spectre"
"version" "23.1.0.538.isr10"
"date" "6:05:51 PM, Mon Jun 15, 2026"
"design" "// Point Netlist Generated on: Jun 15 15:29:54 2026"
"analysis type" "dc"
"analysis name" "dc"
"analysis description" "DC Analysis `dc': Vsg = (0 -> 800e-03)"
"xVecSorted" "unsorted"
"tolerance.relative" 1.000000000000000e-03
"reltol" 1.000000000000000e-03
"abstol(V)" 1.000000000000000e-06
"abstol(I)" 1.000000000000000e-12
"temp" 2.700000000000000e+01
"tnom" 2.700000000000000e+01
"tempeffects" "all"
"gmindc" 1.000000000000000e-12
TYPE
"sweep" FLOAT DOUBLE PROP(
"key" "sweep"
)
"LogicV" FLOAT DOUBLE PROP(
"key" "node"
)
"V" FLOAT DOUBLE PROP(
"units" "V"
"key" "node"
"tolerance" 1.000000000000000e-06
)
"I" FLOAT DOUBLE PROP(
"units" "A"
"key" "branch"
"tolerance" 1.000000000000000e-12
)
"MMF" FLOAT DOUBLE PROP(
"units" "A*turn"
"key" "node"
"tolerance" 1.000000000000000e-12
)
"Wb" FLOAT DOUBLE PROP(
"units" "Wb"
"key" "node"
"tolerance" 1.000000000000000e-09
)
"Temp" FLOAT DOUBLE PROP(
"units" "C"
"key" "node"
"tolerance" 1.000000000000000e-04
)
"Pwr" FLOAT DOUBLE PROP(
"units" "W"
"key" "node"
"tolerance" 1.000000000000000e-09
)
"U" FLOAT DOUBLE PROP(
"units" ""
"key" "node"
"tolerance" 1.000000000000000e-06
)
"V/Sec" FLOAT DOUBLE PROP(
"units" "V/s"
"key" "node"
"tolerance" 9.999999999999999e-05
)
"I/Sec" FLOAT DOUBLE PROP(
"units" "A/s"
"key" "node"
"tolerance" 1.000000000000000e-06
)
"1/Sec" FLOAT DOUBLE PROP(
"units" "1/s"
"key" "node"
"tolerance" 9.999999999999999e-05
)
"HOD" FLOAT DOUBLE PROP(
"units" ""
"key" "node"
"tolerance" 1.000000000000000e-02
)
"Q" FLOAT DOUBLE PROP(
"units" "Coul"
"key" "node"
"tolerance" 1.000000000000000e-15
)
"Efield" FLOAT DOUBLE PROP(
"units" "V/m"
"key" "node"
"tolerance" 1.000000000000000e-06
"sigtype" "optical"
)
"param_real" FLOAT DOUBLE PROP(
"key" "parameters"
)
SWEEP
"Vsg" "sweep" PROP(
"sweep_direction" 0
"plot" 0
"grid" 1
)
TRACE
"Vsg" "param_real"
"M0:s" "I"
"Vsd" "V"
"net3" "V"
"V3:p" "I"
"V8:p" "I"
VALUE
"Vsg" 0.000000000000000e+00
"Vsg" 0.000000000000000e+00
"M0:s" 1.829905617452296e-11
"Vsd" 4.500000000000000e-01
"net3" 4.500000000000000e-01
"V3:p" -1.902650679702049e-11
"V8:p" 1.889617728539845e-13
"Vsg" 1.600000000000000e-02
"Vsg" 1.600000000000000e-02
"M0:s" 3.214279379249451e-11
"Vsd" 4.500000000000000e-01
"net3" 4.340000000000000e-01
"V3:p" -3.285177652718866e-11
"V8:p" 1.763615938277760e-13
"Vsg" 3.200000000000000e-02
"Vsg" 3.200000000000000e-02
"M0:s" 5.645942571209198e-11
"Vsd" 4.500000000000000e-01
"net3" 4.180000000000000e-01
"V3:p" -5.715146560396306e-11
"V8:p" 1.636238019551862e-13
"Vsg" 4.800000000000000e-02
"Vsg" 4.800000000000000e-02
"M0:s" 9.917065455472449e-11
"Vsd" 4.500000000000000e-01
"net3" 4.020000000000000e-01
"V3:p" -9.984681899458861e-11
"V8:p" 1.507132116432700e-13
"Vsg" 6.400000000000000e-02
"Vsg" 6.400000000000000e-02
"M0:s" 1.741891382744331e-10
"Vsd" 4.500000000000000e-01
"net3" 3.860000000000000e-01
"V3:p" -1.748501733660870e-10
"V8:p" 1.376385770882386e-13
"Vsg" 8.000000000000000e-02
"Vsg" 8.000000000000000e-02
"M0:s" 3.059468637690784e-10
"Vsd" 4.500000000000000e-01
"net3" 3.700000000000000e-01
"V3:p" -3.065932736329822e-10
"V8:p" 1.244117023757237e-13
"Vsg" 9.600000000000000e-02
"Vsg" 9.600000000000000e-02
"M0:s" 5.373409651685292e-10
"Vsd" 4.500000000000000e-01
"net3" 3.540000000000000e-01
"V3:p" -5.379730751006475e-10
"V8:p" 1.110456068233523e-13
"Vsg" 1.120000000000000e-01
"Vsg" 1.120000000000000e-01
"M0:s" 9.436651619914198e-10
"Vsd" 4.500000000000000e-01
"net3" 3.380000000000000e-01
"V3:p" -9.442831687572902e-10
"V8:p" 9.755412017665602e-14
"Vsg" 1.280000000000000e-01
"Vsg" 1.280000000000000e-01
"M0:s" 1.657001988135124e-09
"Vsd" 4.500000000000000e-01
"net3" 3.220000000000000e-01
"V3:p" -1.657605999374891e-09
"V8:p" 8.395165783632449e-14
"Vsg" 1.440000000000000e-01
"Vsg" 1.440000000000000e-01
"M0:s" 2.908826795710773e-09
"Vsd" 4.500000000000000e-01
"net3" 3.060000000000000e-01
"V3:p" -2.909416860208636e-09
"V8:p" 7.025304559781170e-14
"Vsg" 1.600000000000000e-01
"Vsg" 1.600000000000000e-01
"M0:s" 5.104103818273439e-09
"Vsd" 4.500000000000000e-01
"net3" 2.900000000000000e-01
"V3:p" -5.104679948683500e-09
"V8:p" 5.647335597701247e-14
"Vsg" 1.760000000000000e-01
"Vsg" 1.760000000000000e-01
"M0:s" 8.949191344886775e-09
"Vsd" 4.500000000000000e-01
"net3" 2.740000000000000e-01
"V3:p" -8.949753534328536e-09
"V8:p" 4.262772600660657e-14
"Vsg" 1.920000000000001e-01
"Vsg" 1.920000000000001e-01
"M0:s" 1.566975532139242e-08
"Vsd" 4.500000000000000e-01
"net3" 2.580000000000000e-01
"V3:p" -1.567030355512446e-08
"V8:p" 2.873111795843210e-14
"Vsg" 2.080000000000001e-01
"Vsg" 2.080000000000001e-01
"M0:s" 2.737360881990412e-08
"Vsd" 4.500000000000000e-01
"net3" 2.419999999999999e-01
"V3:p" -2.737414308305671e-08
"V8:p" 1.479797076866650e-14
"Vsg" 2.240000000000001e-01
"Vsg" 2.240000000000001e-01
"M0:s" 4.763111918125372e-08
"Vsd" 4.500000000000000e-01
"net3" 2.259999999999999e-01
"V3:p" -4.763163946336656e-08
"V8:p" 8.416846154210370e-16
"Vsg" 2.400000000000001e-01
"Vsg" 2.400000000000001e-01
"M0:s" 8.234075257552536e-08
"Vsd" 4.500000000000000e-01
"net3" 2.099999999999999e-01
"V3:p" -8.234125887244849e-08
"V8:p" -1.312607865537984e-14
"Vsg" 2.560000000000001e-01
"Vsg" 2.560000000000001e-01
"M0:s" 1.408688343552011e-07
"Vsd" 4.500000000000000e-01
"net3" 1.939999999999999e-01
"V3:p" -1.408693266688973e-07
"V8:p" -2.709614072264776e-14
"Vsg" 2.720000000000001e-01
"Vsg" 2.720000000000001e-01
"M0:s" 2.372359119045651e-07
"Vsd" 4.500000000000000e-01
"net3" 1.779999999999999e-01
"V3:p" -2.372363902416551e-07
"V8:p" -4.106215413795374e-14
"Vsg" 2.880000000000001e-01
"Vsg" 2.880000000000001e-01
"M0:s" 3.907988069156134e-07
"Vsd" 4.500000000000000e-01
"net3" 1.619999999999999e-01
"V3:p" -3.907992712860479e-07
"V8:p" -5.501988883844843e-14
"Vsg" 3.040000000000002e-01
"Vsg" 3.040000000000002e-01
"M0:s" 6.257450359817495e-07
"Vsd" 4.500000000000000e-01
"net3" 1.459999999999999e-01
"V3:p" -6.257454863991159e-07
"V8:p" -6.896523825293574e-14
"Vsg" 3.200000000000002e-01
"Vsg" 3.200000000000002e-01
"M0:s" 9.691663237867963e-07
"Vsd" 4.500000000000000e-01
"net3" 1.299999999999998e-01
"V3:p" -9.691667602707610e-07
"V8:p" -8.289187350657864e-14
"Vsg" 3.360000000000002e-01
"Vsg" 3.360000000000002e-01
"M0:s" 1.448308948004736e-06
"Vsd" 4.500000000000000e-01
"net3" 1.139999999999998e-01
"V3:p" -1.448309370584618e-06
"V8:p" -9.678999755656558e-14
"Vsg" 3.520000000000002e-01
"Vsg" 3.520000000000002e-01
"M0:s" 2.087983377968150e-06
"Vsd" 4.500000000000000e-01
"net3" 9.799999999999981e-02
"V3:p" -2.087983786686101e-06
"V8:p" -1.106466820868377e-13
"Vsg" 3.680000000000002e-01
"Vsg" 3.680000000000002e-01
"M0:s" 2.908750166493961e-06
"Vsd" 4.500000000000000e-01
"net3" 8.199999999999980e-02
"V3:p" -2.908750561406883e-06
"V8:p" -1.244470993829159e-13
"Vsg" 3.840000000000002e-01
"Vsg" 3.840000000000002e-01
"M0:s" 3.925945864920351e-06
"Vsd" 4.500000000000000e-01
"net3" 6.599999999999978e-02
"V3:p" -3.925946246100515e-06
"V8:p" -1.381758166311956e-13
"Vsg" 4.000000000000002e-01
"Vsg" 4.000000000000002e-01
"M0:s" 5.149354418790404e-06
"Vsd" 4.500000000000000e-01
"net3" 4.999999999999977e-02
"V3:p" -5.149354786325063e-06
"V8:p" -1.518177906436726e-13
"Vsg" 4.160000000000003e-01
"Vsg" 4.160000000000003e-01
"M0:s" 6.583338920040863e-06
"Vsd" 4.500000000000000e-01
"net3" 3.399999999999975e-02
"V3:p" -6.583339274031121e-06
"V8:p" -1.653591135797997e-13
"Vsg" 4.320000000000003e-01
"Vsg" 4.320000000000003e-01
"M0:s" 8.227325556753860e-06
"Vsd" 4.500000000000000e-01
"net3" 1.799999999999974e-02
"V3:p" -8.227325897312137e-06
"V8:p" -1.787884190599839e-13
"Vsg" 4.480000000000003e-01
"Vsg" 4.480000000000003e-01
"M0:s" 1.007656160124351e-05
"Vsd" 4.500000000000000e-01
"net3" 1.999999999999724e-03
"V3:p" -1.007656192846531e-05
"V8:p" -1.921225759667874e-13
"Vsg" 4.640000000000003e-01
"Vsg" 4.640000000000003e-01
"M0:s" 1.212303875128077e-05
"Vsd" 4.500000000000000e-01
"net3" -1.400000000000029e-02
"V3:p" -1.212303906483990e-05
"V8:p" -2.057832345576054e-13
"Vsg" 4.800000000000003e-01
"Vsg" 4.800000000000003e-01
"M0:s" 1.435642868698964e-05
"Vsd" 4.500000000000000e-01
"net3" -3.000000000000030e-02
"V3:p" -1.435642898598430e-05
"V8:p" -2.203459676227910e-13
"Vsg" 4.960000000000003e-01
"Vsg" 4.960000000000003e-01
"M0:s" 1.676488367776486e-05
"Vsd" 4.500000000000000e-01
"net3" -4.600000000000032e-02
"V3:p" -1.676488396123644e-05
"V8:p" -2.358675542714110e-13
"Vsg" 5.120000000000003e-01
"Vsg" 5.120000000000003e-01
"M0:s" 1.933563224359182e-05
"Vsd" 4.500000000000000e-01
"net3" -6.200000000000033e-02
"V3:p" -1.933563251059154e-05
"V8:p" -2.523381148980451e-13
"Vsg" 5.280000000000004e-01
"Vsg" 5.280000000000004e-01
"M0:s" 2.205539485090484e-05
"Vsd" 4.500000000000000e-01
"net3" -7.800000000000035e-02
"V3:p" -2.205539510049771e-05
"V8:p" -2.697438604277423e-13
"Vsg" 5.440000000000004e-01
"Vsg" 5.440000000000004e-01
"M0:s" 2.491068843418460e-05
"Vsd" 4.500000000000000e-01
"net3" -9.400000000000036e-02
"V3:p" -2.491068866545097e-05
"V8:p" -2.880694008134547e-13
"Vsg" 5.600000000000004e-01
"Vsg" 5.600000000000004e-01
"M0:s" 2.788807259673633e-05
"Vsd" 4.500000000000000e-01
"net3" -1.100000000000004e-01
"V3:p" -2.788807280877297e-05
"V8:p" -3.072983116508998e-13
"Vsg" 5.760000000000004e-01
"Vsg" 5.760000000000004e-01
"M0:s" 3.097435626394286e-05
"Vsd" 4.500000000000000e-01
"net3" -1.260000000000004e-01
"V3:p" -3.097435645586354e-05
"V8:p" -3.274135675094029e-13
"Vsg" 5.920000000000004e-01
"Vsg" 5.920000000000004e-01
"M0:s" 3.415676416375409e-05
"Vsd" 4.500000000000000e-01
"net3" -1.420000000000004e-01
"V3:p" -3.415676433468987e-05
"V8:p" -3.483978852660145e-13
"Vsg" 6.080000000000004e-01
"Vsg" 6.080000000000004e-01
"M0:s" 3.742306045801985e-05
"Vsd" 4.500000000000000e-01
"net3" -1.580000000000004e-01
"V3:p" -3.742306060711903e-05
"V8:p" -3.702339653695491e-13
"Vsg" 6.240000000000004e-01
"Vsg" 6.240000000000004e-01
"M0:s" 4.076163166597418e-05
"Vsd" 4.500000000000000e-01
"net3" -1.740000000000004e-01
"V3:p" -4.076163179240225e-05
"V8:p" -3.929046431054475e-13
"Vsg" 6.400000000000005e-01
"Vsg" 6.400000000000005e-01
"M0:s" 4.416153512664149e-05
"Vsd" 4.500000000000000e-01
"net3" -1.900000000000004e-01
"V3:p" -4.416153522958086e-05
"V8:p" -4.163929734771734e-13
"Vsg" 6.560000000000005e-01
"Vsg" 6.560000000000005e-01
"M0:s" 4.761252067636831e-05
"Vsd" 4.500000000000000e-01
"net3" -2.060000000000005e-01
"V3:p" -4.761252075501806e-05
"V8:p" -4.406822725546854e-13
"Vsg" 6.720000000000005e-01
"Vsg" 6.720000000000005e-01
"M0:s" 5.110503271996111e-05
"Vsd" 4.500000000000000e-01
"net3" -2.220000000000005e-01
"V3:p" -5.110503277353673e-05
"V8:p" -4.657561326676886e-13
"Vsg" 6.880000000000005e-01
"Vsg" 6.880000000000005e-01
"M0:s" 5.463019857049547e-05
"Vsd" 4.500000000000000e-01
"net3" -2.380000000000005e-01
"V3:p" -5.463019859822856e-05
"V8:p" -4.915984230801340e-13
"Vsg" 7.040000000000005e-01
"Vsg" 7.040000000000005e-01
"M0:s" 5.817980753458082e-05
"Vsd" 4.500000000000000e-01
"net3" -2.540000000000005e-01
"V3:p" -5.817980753571886e-05
"V8:p" -5.181932833296252e-13
"Vsg" 7.200000000000005e-01
"Vsg" 7.200000000000005e-01
"M0:s" 6.174628402713733e-05
"Vsd" 4.500000000000000e-01
"net3" -2.700000000000005e-01
"V3:p" -6.174628400094337e-05
"V8:p" -5.455251134003744e-13
"Vsg" 7.360000000000005e-01
"Vsg" 7.360000000000005e-01
"M0:s" 6.532265707925569e-05
"Vsd" 4.500000000000000e-01
"net3" -2.860000000000005e-01
"V3:p" -6.532265702500815e-05
"V8:p" -5.735785630115324e-13
"Vsg" 7.520000000000006e-01
"Vsg" 7.520000000000006e-01
"M0:s" 6.890252792466629e-05
"Vsd" 4.500000000000000e-01
"net3" -3.020000000000005e-01
"V3:p" -6.890252784165866e-05
"V8:p" -6.023385211835188e-13
"Vsg" 7.680000000000006e-01
"Vsg" 7.680000000000006e-01
"M0:s" 7.248003685993910e-05
"Vsd" 4.500000000000000e-01
"net3" -3.180000000000006e-01
"V3:p" -7.248003674747980e-05
"V8:p" -6.317901066088006e-13
"Vsg" 7.840000000000006e-01
"Vsg" 7.840000000000006e-01
"M0:s" 7.604983021974221e-05
"Vsd" 4.500000000000000e-01
"net3" -3.340000000000006e-01
"V3:p" -7.604983007715427e-05
"V8:p" -6.619186590081225e-13
"Vsg" 8.000000000000000e-01
"Vsg" 8.000000000000000e-01
"M0:s" 7.960702805177223e-05
"Vsd" 4.500000000000000e-01
"net3" -3.500000000000000e-01
"V3:p" -7.960702787839316e-05
"V8:p" -6.927097314756180e-13
END
