HEADER
"PSFversion" "1.00"
"simulator" "spectre"
"version" "23.1.0.538.isr10"
"date" "6:03:55 PM, Mon Jun 15, 2026"
"design" "// Point Netlist Generated on: Jun 15 15:36:30 2026"
"analysis type" "dc"
"analysis name" "dc"
"analysis description" "DC Analysis `dc': Vsd = (0 -> 800e-03)"
"xVecSorted" "unsorted"
"tolerance.relative" 1.000000000000000e-03
"reltol" 1.000000000000000e-03
"abstol(V)" 1.000000000000000e-06
"abstol(I)" 1.000000000000000e-12
"temp" 2.700000000000000e+01
"tnom" 2.700000000000000e+01
"tempeffects" "all"
"gmindc" 1.000000000000000e-12
TYPE
"sweep" FLOAT DOUBLE PROP(
"key" "sweep"
)
"LogicV" FLOAT DOUBLE PROP(
"key" "node"
)
"V" FLOAT DOUBLE PROP(
"units" "V"
"key" "node"
"tolerance" 1.000000000000000e-06
)
"I" FLOAT DOUBLE PROP(
"units" "A"
"key" "branch"
"tolerance" 1.000000000000000e-12
)
"MMF" FLOAT DOUBLE PROP(
"units" "A*turn"
"key" "node"
"tolerance" 1.000000000000000e-12
)
"Wb" FLOAT DOUBLE PROP(
"units" "Wb"
"key" "node"
"tolerance" 1.000000000000000e-09
)
"Temp" FLOAT DOUBLE PROP(
"units" "C"
"key" "node"
"tolerance" 1.000000000000000e-04
)
"Pwr" FLOAT DOUBLE PROP(
"units" "W"
"key" "node"
"tolerance" 1.000000000000000e-09
)
"U" FLOAT DOUBLE PROP(
"units" ""
"key" "node"
"tolerance" 1.000000000000000e-06
)
"V/Sec" FLOAT DOUBLE PROP(
"units" "V/s"
"key" "node"
"tolerance" 9.999999999999999e-05
)
"I/Sec" FLOAT DOUBLE PROP(
"units" "A/s"
"key" "node"
"tolerance" 1.000000000000000e-06
)
"1/Sec" FLOAT DOUBLE PROP(
"units" "1/s"
"key" "node"
"tolerance" 9.999999999999999e-05
)
"HOD" FLOAT DOUBLE PROP(
"units" ""
"key" "node"
"tolerance" 1.000000000000000e-02
)
"Q" FLOAT DOUBLE PROP(
"units" "Coul"
"key" "node"
"tolerance" 1.000000000000000e-15
)
"Efield" FLOAT DOUBLE PROP(
"units" "V/m"
"key" "node"
"tolerance" 1.000000000000000e-06
"sigtype" "optical"
)
SWEEP
"Vsd" "sweep" PROP(
"sweep_direction" 0
"plot" 0
"grid" 1
)
TRACE
"M0:s" "I"
"Vsd" "V"
VALUE
"Vsd" 0.000000000000000e+00
"M0:s" 5.807540343536710e-18
"Vsd" 0.000000000000000e+00
"Vsd" 1.600000000000000e-02
"M0:s" 7.307584323022657e-07
"Vsd" 1.600000000000000e-02
"Vsd" 3.200000000000000e-02
"M0:s" 1.064591799770525e-06
"Vsd" 3.200000000000000e-02
"Vsd" 4.800000000000000e-02
"M0:s" 1.183137911517923e-06
"Vsd" 4.800000000000000e-02
"Vsd" 6.400000000000000e-02
"M0:s" 1.249147641002606e-06
"Vsd" 6.400000000000000e-02
"Vsd" 8.000000000000000e-02
"M0:s" 1.302046418427906e-06
"Vsd" 8.000000000000000e-02
"Vsd" 9.600000000000000e-02
"M0:s" 1.350986185696025e-06
"Vsd" 9.600000000000000e-02
"Vsd" 1.120000000000000e-01
"M0:s" 1.398636013658917e-06
"Vsd" 1.120000000000000e-01
"Vsd" 1.280000000000000e-01
"M0:s" 1.445943176515545e-06
"Vsd" 1.280000000000000e-01
"Vsd" 1.440000000000000e-01
"M0:s" 1.493297104514082e-06
"Vsd" 1.440000000000000e-01
"Vsd" 1.600000000000000e-01
"M0:s" 1.540877852292882e-06
"Vsd" 1.600000000000000e-01
"Vsd" 1.760000000000000e-01
"M0:s" 1.588777862991732e-06
"Vsd" 1.760000000000000e-01
"Vsd" 1.920000000000001e-01
"M0:s" 1.637049666212415e-06
"Vsd" 1.920000000000001e-01
"Vsd" 2.080000000000001e-01
"M0:s" 1.685726235069896e-06
"Vsd" 2.080000000000001e-01
"Vsd" 2.240000000000001e-01
"M0:s" 1.734830272999378e-06
"Vsd" 2.240000000000001e-01
"Vsd" 2.400000000000001e-01
"M0:s" 1.784378687917567e-06
"Vsd" 2.400000000000001e-01
"Vsd" 2.560000000000001e-01
"M0:s" 1.834384853637211e-06
"Vsd" 2.560000000000001e-01
"Vsd" 2.720000000000001e-01
"M0:s" 1.884859806604560e-06
"Vsd" 2.720000000000001e-01
"Vsd" 2.880000000000001e-01
"M0:s" 1.935812910337324e-06
"Vsd" 2.880000000000001e-01
"Vsd" 3.040000000000002e-01
"M0:s" 1.987252244510121e-06
"Vsd" 3.040000000000002e-01
"Vsd" 3.200000000000002e-01
"M0:s" 2.039184846914763e-06
"Vsd" 3.200000000000002e-01
"Vsd" 3.360000000000002e-01
"M0:s" 2.091616874145171e-06
"Vsd" 3.360000000000002e-01
"Vsd" 3.520000000000002e-01
"M0:s" 2.144553715696949e-06
"Vsd" 3.520000000000002e-01
"Vsd" 3.680000000000002e-01
"M0:s" 2.198000080195983e-06
"Vsd" 3.680000000000002e-01
"Vsd" 3.840000000000002e-01
"M0:s" 2.251960064097440e-06
"Vsd" 3.840000000000002e-01
"Vsd" 4.000000000000002e-01
"M0:s" 2.306437208718356e-06
"Vsd" 4.000000000000002e-01
"Vsd" 4.160000000000003e-01
"M0:s" 2.361434549030493e-06
"Vsd" 4.160000000000003e-01
"Vsd" 4.320000000000003e-01
"M0:s" 2.416954656289236e-06
"Vsd" 4.320000000000003e-01
"Vsd" 4.480000000000003e-01
"M0:s" 2.472999675813187e-06
"Vsd" 4.480000000000003e-01
"Vsd" 4.640000000000003e-01
"M0:s" 2.529571360790272e-06
"Vsd" 4.640000000000003e-01
"Vsd" 4.800000000000003e-01
"M0:s" 2.586671102727368e-06
"Vsd" 4.800000000000003e-01
"Vsd" 4.960000000000003e-01
"M0:s" 2.644299959002209e-06
"Vsd" 4.960000000000003e-01
"Vsd" 5.120000000000003e-01
"M0:s" 2.702458677877187e-06
"Vsd" 5.120000000000003e-01
"Vsd" 5.280000000000004e-01
"M0:s" 2.761147721267210e-06
"Vsd" 5.280000000000004e-01
"Vsd" 5.440000000000004e-01
"M0:s" 2.820367285507591e-06
"Vsd" 5.440000000000004e-01
"Vsd" 5.600000000000004e-01
"M0:s" 2.880117320333421e-06
"Vsd" 5.600000000000004e-01
"Vsd" 5.760000000000004e-01
"M0:s" 2.940397546254098e-06
"Vsd" 5.760000000000004e-01
"Vsd" 5.920000000000004e-01
"M0:s" 3.001207470485894e-06
"Vsd" 5.920000000000004e-01
"Vsd" 6.080000000000004e-01
"M0:s" 3.062546401585952e-06
"Vsd" 6.080000000000004e-01
"Vsd" 6.240000000000004e-01
"M0:s" 3.124413462915758e-06
"Vsd" 6.240000000000004e-01
"Vsd" 6.400000000000005e-01
"M0:s" 3.186807605048107e-06
"Vsd" 6.400000000000005e-01
"Vsd" 6.560000000000005e-01
"M0:s" 3.249727617219540e-06
"Vsd" 6.560000000000005e-01
"Vsd" 6.720000000000005e-01
"M0:s" 3.313172137919216e-06
"Vsd" 6.720000000000005e-01
"Vsd" 6.880000000000005e-01
"M0:s" 3.377139664695717e-06
"Vsd" 6.880000000000005e-01
"Vsd" 7.040000000000005e-01
"M0:s" 3.441628563254532e-06
"Vsd" 7.040000000000005e-01
"Vsd" 7.200000000000005e-01
"M0:s" 3.506637075911800e-06
"Vsd" 7.200000000000005e-01
"Vsd" 7.360000000000005e-01
"M0:s" 3.572163329462242e-06
"Vsd" 7.360000000000005e-01
"Vsd" 7.520000000000006e-01
"M0:s" 3.638205342514137e-06
"Vsd" 7.520000000000006e-01
"Vsd" 7.680000000000006e-01
"M0:s" 3.704761032337889e-06
"Vsd" 7.680000000000006e-01
"Vsd" 7.840000000000006e-01
"M0:s" 3.771828221270500e-06
"Vsd" 7.840000000000006e-01
"Vsd" 8.000000000000000e-01
"M0:s" 3.839404642714012e-06
"Vsd" 8.000000000000000e-01
END
