HEADER
"PSFversion" "1.00"
"simulator" "spectre"
"version" "23.1.0.538.isr10"
"date" "5:49:32 PM, Mon Jun 15, 2026"
"design" "// Point Netlist Generated on: Jun 15 15:42:28 2026"
"analysis type" "dc"
"analysis name" "dc"
"analysis description" "DC Analysis `dc': Vsg = (0 -> 800e-03)"
"xVecSorted" "unsorted"
"tolerance.relative" 1.000000000000000e-03
"reltol" 1.000000000000000e-03
"abstol(V)" 1.000000000000000e-06
"abstol(I)" 1.000000000000000e-12
"temp" 2.700000000000000e+01
"tnom" 2.700000000000000e+01
"tempeffects" "all"
"gmindc" 1.000000000000000e-12
TYPE
"sweep" FLOAT DOUBLE PROP(
"key" "sweep"
)
"LogicV" FLOAT DOUBLE PROP(
"key" "node"
)
"V" FLOAT DOUBLE PROP(
"units" "V"
"key" "node"
"tolerance" 1.000000000000000e-06
)
"I" FLOAT DOUBLE PROP(
"units" "A"
"key" "branch"
"tolerance" 1.000000000000000e-12
)
"MMF" FLOAT DOUBLE PROP(
"units" "A*turn"
"key" "node"
"tolerance" 1.000000000000000e-12
)
"Wb" FLOAT DOUBLE PROP(
"units" "Wb"
"key" "node"
"tolerance" 1.000000000000000e-09
)
"Temp" FLOAT DOUBLE PROP(
"units" "C"
"key" "node"
"tolerance" 1.000000000000000e-04
)
"Pwr" FLOAT DOUBLE PROP(
"units" "W"
"key" "node"
"tolerance" 1.000000000000000e-09
)
"U" FLOAT DOUBLE PROP(
"units" ""
"key" "node"
"tolerance" 1.000000000000000e-06
)
"V/Sec" FLOAT DOUBLE PROP(
"units" "V/s"
"key" "node"
"tolerance" 9.999999999999999e-05
)
"I/Sec" FLOAT DOUBLE PROP(
"units" "A/s"
"key" "node"
"tolerance" 1.000000000000000e-06
)
"1/Sec" FLOAT DOUBLE PROP(
"units" "1/s"
"key" "node"
"tolerance" 9.999999999999999e-05
)
"HOD" FLOAT DOUBLE PROP(
"units" ""
"key" "node"
"tolerance" 1.000000000000000e-02
)
"Q" FLOAT DOUBLE PROP(
"units" "Coul"
"key" "node"
"tolerance" 1.000000000000000e-15
)
"Efield" FLOAT DOUBLE PROP(
"units" "V/m"
"key" "node"
"tolerance" 1.000000000000000e-06
"sigtype" "optical"
)
"param_real" FLOAT DOUBLE PROP(
"key" "parameters"
)
SWEEP
"Vsg" "sweep" PROP(
"sweep_direction" 0
"plot" 0
"grid" 1
)
TRACE
"Vsg" "param_real"
"M0:s" "I"
"Vsd" "V"
"net3" "V"
"V3:p" "I"
"V8:p" "I"
VALUE
"Vsg" 0.000000000000000e+00
"Vsg" 0.000000000000000e+00
"M0:s" 2.270477413109462e-12
"Vsd" 4.500000000000000e-01
"net3" 4.500000000000000e-01
"V3:p" -2.720477412527989e-12
"V8:p" -1.004952441355243e-29
"Vsg" 1.600000000000000e-02
"Vsg" 1.600000000000000e-02
"M0:s" 3.819146313299583e-12
"Vsd" 4.500000000000000e-01
"net3" 4.340000000000000e-01
"V3:p" -4.269146312718107e-12
"V8:p" -2.928260984629192e-16
"Vsg" 3.200000000000000e-02
"Vsg" 3.200000000000000e-02
"M0:s" 6.424144096717781e-12
"Vsd" 4.500000000000000e-01
"net3" 4.180000000000000e-01
"V3:p" -6.874144096136306e-12
"V8:p" -4.769167215664092e-16
"Vsg" 4.800000000000000e-02
"Vsg" 4.800000000000000e-02
"M0:s" 1.080597674030878e-11
"Vsd" 4.500000000000000e-01
"net3" 4.020000000000000e-01
"V3:p" -1.125597673972731e-11
"V8:p" -5.824727967457350e-16
"Vsg" 6.400000000000000e-02
"Vsg" 6.400000000000000e-02
"M0:s" 1.817658969321171e-11
"Vsd" 4.500000000000000e-01
"net3" 3.860000000000000e-01
"V3:p" -1.862658969263024e-11
"V8:p" -6.322753903650714e-16
"Vsg" 8.000000000000000e-02
"Vsg" 8.000000000000000e-02
"M0:s" 3.057455464115641e-11
"Vsd" 4.500000000000000e-01
"net3" 3.700000000000000e-01
"V3:p" -3.102455464057494e-11
"V8:p" -6.433795240529298e-16
"Vsg" 9.600000000000000e-02
"Vsg" 9.600000000000000e-02
"M0:s" 5.142884821053480e-11
"Vsd" 4.500000000000000e-01
"net3" 3.540000000000000e-01
"V3:p" -5.187884820995332e-11
"V8:p" -6.284429081283032e-16
"Vsg" 1.120000000000000e-01
"Vsg" 1.120000000000000e-01
"M0:s" 8.650707802885406e-11
"Vsd" 4.500000000000000e-01
"net3" 3.380000000000000e-01
"V3:p" -8.695707802827258e-11
"V8:p" -5.967636854123675e-16
"Vsg" 1.280000000000000e-01
"Vsg" 1.280000000000000e-01
"M0:s" 1.455101997324814e-10
"Vsd" 4.500000000000000e-01
"net3" 3.220000000000000e-01
"V3:p" -1.459601997318999e-10
"V8:p" -5.550874899351469e-16
"Vsg" 1.440000000000000e-01
"Vsg" 1.440000000000000e-01
"M0:s" 2.447541692698091e-10
"Vsd" 4.500000000000000e-01
"net3" 3.060000000000000e-01
"V3:p" -2.452041692692275e-10
"V8:p" -5.082324910171613e-16
"Vsg" 1.600000000000000e-01
"Vsg" 1.600000000000000e-01
"M0:s" 4.116784455737071e-10
"Vsd" 4.500000000000000e-01
"net3" 2.900000000000000e-01
"V3:p" -4.121284455731253e-10
"V8:p" -4.595714344590462e-16
"Vsg" 1.760000000000000e-01
"Vsg" 1.760000000000000e-01
"M0:s" 6.924232567496707e-10
"Vsd" 4.500000000000000e-01
"net3" 2.740000000000000e-01
"V3:p" -6.928732567490883e-10
"V8:p" -4.114017718946873e-16
"Vsg" 1.920000000000001e-01
"Vsg" 1.920000000000001e-01
"M0:s" 1.164557035632959e-09
"Vsd" 4.500000000000000e-01
"net3" 2.580000000000000e-01
"V3:p" -1.165007035632375e-09
"V8:p" -3.652285362029290e-16
"Vsg" 2.080000000000001e-01
"Vsg" 2.080000000000001e-01
"M0:s" 1.958433680571923e-09
"Vsd" 4.500000000000000e-01
"net3" 2.419999999999999e-01
"V3:p" -1.958883680571334e-09
"V8:p" -3.219794359026961e-16
"Vsg" 2.240000000000001e-01
"Vsg" 2.240000000000001e-01
"M0:s" 3.292972259153904e-09
"Vsd" 4.500000000000000e-01
"net3" 2.259999999999999e-01
"V3:p" -3.293422259153301e-09
"V8:p" -2.821674888263700e-16
"Vsg" 2.400000000000001e-01
"Vsg" 2.400000000000001e-01
"M0:s" 5.535432878192041e-09
"Vsd" 4.500000000000000e-01
"net3" 2.099999999999999e-01
"V3:p" -5.535882878191400e-09
"V8:p" -2.460132076505771e-16
"Vsg" 2.560000000000001e-01
"Vsg" 2.560000000000001e-01
"M0:s" 9.300816858909344e-09
"Vsd" 4.500000000000000e-01
"net3" 1.939999999999999e-01
"V3:p" -9.301266858908593e-09
"V8:p" -2.135357292882100e-16
"Vsg" 2.720000000000001e-01
"Vsg" 2.720000000000001e-01
"M0:s" 1.561585753708999e-08
"Vsd" 4.500000000000000e-01
"net3" 1.779999999999999e-01
"V3:p" -1.561630753708894e-08
"V8:p" -1.846202189966227e-16
"Vsg" 2.880000000000001e-01
"Vsg" 2.880000000000001e-01
"M0:s" 2.618597092624521e-08
"Vsd" 4.500000000000000e-01
"net3" 1.619999999999999e-01
"V3:p" -2.618642092624329e-08
"V8:p" -1.590672836829121e-16
"Vsg" 3.040000000000002e-01
"Vsg" 3.040000000000002e-01
"M0:s" 4.381996336920226e-08
"Vsd" 4.500000000000000e-01
"net3" 1.459999999999999e-01
"V3:p" -4.382041336919795e-08
"V8:p" -1.366289469666888e-16
"Vsg" 3.200000000000002e-01
"Vsg" 3.200000000000002e-01
"M0:s" 7.307941182680805e-08
"Vsd" 4.500000000000000e-01
"net3" 1.299999999999998e-01
"V3:p" -7.307986182679709e-08
"V8:p" -1.170349933781895e-16
"Vsg" 3.360000000000002e-01
"Vsg" 3.360000000000002e-01
"M0:s" 1.212037226458168e-07
"Vsd" 4.500000000000000e-01
"net3" 1.139999999999998e-01
"V3:p" -1.212041726457879e-07
"V8:p" -1.000133238909294e-16
"Vsg" 3.520000000000002e-01
"Vsg" 3.520000000000002e-01
"M0:s" 1.992622738514267e-07
"Vsd" 4.500000000000000e-01
"net3" 9.799999999999981e-02
"V3:p" -1.992627238513497e-07
"V8:p" -8.530865990277018e-17
"Vsg" 3.680000000000002e-01
"Vsg" 3.680000000000002e-01
"M0:s" 3.232142194040260e-07
"Vsd" 4.500000000000000e-01
"net3" 8.199999999999980e-02
"V3:p" -3.232146694038257e-07
"V8:p" -7.270563498646827e-17
"Vsg" 3.840000000000002e-01
"Vsg" 3.840000000000002e-01
"M0:s" 5.140896259245342e-07
"Vsd" 4.500000000000000e-01
"net3" 6.599999999999978e-02
"V3:p" -5.140900759240327e-07
"V8:p" -6.206394754605255e-17
"Vsg" 4.000000000000002e-01
"Vsg" 4.000000000000002e-01
"M0:s" 7.961654520918315e-07
"Vsd" 4.500000000000000e-01
"net3" 4.999999999999977e-02
"V3:p" -7.961659020906410e-07
"V8:p" -5.337084092905400e-17
"Vsg" 4.160000000000003e-01
"Vsg" 4.160000000000003e-01
"M0:s" 1.192648943321035e-06
"Vsd" 4.500000000000000e-01
"net3" 3.399999999999975e-02
"V3:p" -1.192649393318387e-06
"V8:p" -4.680464522538064e-17
"Vsg" 4.320000000000003e-01
"Vsg" 4.320000000000003e-01
"M0:s" 1.720413608712773e-06
"Vsd" 4.500000000000000e-01
"net3" 1.799999999999974e-02
"V3:p" -1.720414058707298e-06
"V8:p" -4.278636851977539e-17
"Vsg" 4.480000000000003e-01
"Vsg" 4.480000000000003e-01
"M0:s" 2.386944106463247e-06
"Vsd" 4.500000000000000e-01
"net3" 1.999999999999724e-03
"V3:p" -2.386944556452740e-06
"V8:p" -4.199252711933372e-17
"Vsg" 4.640000000000003e-01
"Vsg" 4.640000000000003e-01
"M0:s" 3.191261500968234e-06
"Vsd" 4.500000000000000e-01
"net3" -1.400000000000029e-02
"V3:p" -3.191261950949446e-06
"V8:p" -4.532187551057857e-17
"Vsg" 4.800000000000003e-01
"Vsg" 4.800000000000003e-01
"M0:s" 4.127410090822399e-06
"Vsd" 4.500000000000000e-01
"net3" -3.000000000000030e-02
"V3:p" -4.127410540790900e-06
"V8:p" -5.383353029755710e-17
"Vsg" 4.960000000000003e-01
"Vsg" 4.960000000000003e-01
"M0:s" 5.187821286689639e-06
"Vsd" 4.500000000000000e-01
"net3" -4.600000000000032e-02
"V3:p" -5.187821736639736e-06
"V8:p" -6.868186975641269e-17
"Vsg" 5.120000000000003e-01
"Vsg" 5.120000000000003e-01
"M0:s" 6.365145479017958e-06
"Vsd" 4.500000000000000e-01
"net3" -6.200000000000033e-02
"V3:p" -6.365145928942666e-06
"V8:p" -9.106495758433013e-17
"Vsg" 5.280000000000004e-01
"Vsg" 5.280000000000004e-01
"M0:s" 7.652712152115249e-06
"Vsd" 4.500000000000000e-01
"net3" -7.800000000000035e-02
"V3:p" -7.652712602006292e-06
"V8:p" -1.221912248583734e-16
"Vsg" 5.440000000000004e-01
"Vsg" 5.440000000000004e-01
"M0:s" 9.044331301651798e-06
"Vsd" 4.500000000000000e-01
"net3" -9.400000000000036e-02
"V3:p" -9.044331751499630e-06
"V8:p" -1.632617655750670e-16
"Vsg" 5.600000000000004e-01
"Vsg" 5.600000000000004e-01
"M0:s" 1.053397645073647e-05
"Vsd" 4.500000000000000e-01
"net3" -1.100000000000004e-01
"V3:p" -1.053397690053030e-05
"V8:p" -2.154633243608904e-16
"Vsg" 5.760000000000004e-01
"Vsg" 5.760000000000004e-01
"M0:s" 1.211557853512928e-05
"Vsd" 4.500000000000000e-01
"net3" -1.260000000000004e-01
"V3:p" -1.211557898485709e-05
"V8:p" -2.799675656034923e-16
"Vsg" 5.920000000000004e-01
"Vsg" 5.920000000000004e-01
"M0:s" 1.378296314051531e-05
"Vsd" 4.500000000000000e-01
"net3" -1.420000000000004e-01
"V3:p" -1.378296359016389e-05
"V8:p" -3.579335555035391e-16
"Vsg" 6.080000000000004e-01
"Vsg" 6.080000000000004e-01
"M0:s" 1.552988841553909e-05
"Vsd" 4.500000000000000e-01
"net3" -1.580000000000004e-01
"V3:p" -1.552988886509401e-05
"V8:p" -4.505116199633962e-16
"Vsg" 6.240000000000004e-01
"Vsg" 6.240000000000004e-01
"M0:s" 1.735013167152242e-05
"Vsd" 4.500000000000000e-01
"net3" -1.740000000000004e-01
"V3:p" -1.735013212096812e-05
"V8:p" -5.588476016995475e-16
"Vsg" 6.400000000000005e-01
"Vsg" 6.400000000000005e-01
"M0:s" 1.923758649392958e-05
"Vsd" 4.500000000000000e-01
"net3" -1.900000000000004e-01
"V3:p" -1.923758694324928e-05
"V8:p" -6.840870607781428e-16
"Vsg" 6.560000000000005e-01
"Vsg" 6.560000000000005e-01
"M0:s" 2.118634868218667e-05
"Vsd" 4.500000000000000e-01
"net3" -2.060000000000005e-01
"V3:p" -2.118634913136245e-05
"V8:p" -8.273792468661598e-16
"Vsg" 6.720000000000005e-01
"Vsg" 6.720000000000005e-01
"M0:s" 2.319078176277858e-05
"Vsd" 4.500000000000000e-01
"net3" -2.220000000000005e-01
"V3:p" -2.319078221179133e-05
"V8:p" -9.898808117954978e-16
"Vsg" 6.880000000000005e-01
"Vsg" 6.880000000000005e-01
"M0:s" 2.524556042622433e-05
"Vsd" 4.500000000000000e-01
"net3" -2.380000000000005e-01
"V3:p" -2.524556087505377e-05
"V8:p" -1.172759291406258e-15
"Vsg" 7.040000000000005e-01
"Vsg" 7.040000000000005e-01
"M0:s" 2.734569414585111e-05
"Vsd" 4.500000000000000e-01
"net3" -2.540000000000005e-01
"V3:p" -2.734569459447574e-05
"V8:p" -1.377196405141190e-15
"Vsg" 7.200000000000005e-01
"Vsg" 7.200000000000005e-01
"M0:s" 2.948653478233681e-05
"Vsd" 4.500000000000000e-01
"net3" -2.700000000000005e-01
"V3:p" -2.948653523073394e-05
"V8:p" -1.604391222577820e-15
"Vsg" 7.360000000000005e-01
"Vsg" 7.360000000000005e-01
"M0:s" 3.166377220206648e-05
"Vsd" 4.500000000000000e-01
"net3" -2.860000000000005e-01
"V3:p" -3.166377265021218e-05
"V8:p" -1.855563239760306e-15
"Vsg" 7.520000000000006e-01
"Vsg" 7.520000000000006e-01
"M0:s" 3.387342152159707e-05
"Vsd" 4.500000000000000e-01
"net3" -3.020000000000005e-01
"V3:p" -3.387342196946616e-05
"V8:p" -2.131955399806397e-15
"Vsg" 7.680000000000006e-01
"Vsg" 7.680000000000006e-01
"M0:s" 3.611180493614619e-05
"Vsd" 4.500000000000000e-01
"net3" -3.180000000000006e-01
"V3:p" -3.611180538371222e-05
"V8:p" -2.434837086473436e-15
"Vsg" 7.840000000000006e-01
"Vsg" 7.840000000000006e-01
"M0:s" 3.837553041005096e-05
"Vsd" 4.500000000000000e-01
"net3" -3.340000000000006e-01
"V3:p" -3.837553085728618e-05
"V8:p" -2.765507112145359e-15
"Vsg" 8.000000000000000e-01
"Vsg" 8.000000000000000e-01
"M0:s" 4.066146890033855e-05
"Vsd" 4.500000000000000e-01
"net3" -3.500000000000000e-01
"V3:p" -4.066146934721385e-05
"V8:p" -3.125296721297644e-15
END
