HEADER
"PSFversion" "1.00"
"simulator" "spectre"
"version" "23.1.0.538.isr10"
"date" "5:46:59 PM, Mon Jun 15, 2026"
"design" "// Point Netlist Generated on: Jun 15 15:50:17 2026"
"analysis type" "dc"
"analysis name" "dc"
"analysis description" "DC Analysis `dc': Vds = (0 -> 800e-03)"
"xVecSorted" "unsorted"
"tolerance.relative" 1.000000000000000e-03
"reltol" 1.000000000000000e-03
"abstol(V)" 1.000000000000000e-06
"abstol(I)" 1.000000000000000e-12
"temp" 2.700000000000000e+01
"tnom" 2.700000000000000e+01
"tempeffects" "all"
"gmindc" 1.000000000000000e-12
TYPE
"sweep" FLOAT DOUBLE PROP(
"key" "sweep"
)
"LogicV" FLOAT DOUBLE PROP(
"key" "node"
)
"V" FLOAT DOUBLE PROP(
"units" "V"
"key" "node"
"tolerance" 1.000000000000000e-06
)
"I" FLOAT DOUBLE PROP(
"units" "A"
"key" "branch"
"tolerance" 1.000000000000000e-12
)
"MMF" FLOAT DOUBLE PROP(
"units" "A*turn"
"key" "node"
"tolerance" 1.000000000000000e-12
)
"Wb" FLOAT DOUBLE PROP(
"units" "Wb"
"key" "node"
"tolerance" 1.000000000000000e-09
)
"Temp" FLOAT DOUBLE PROP(
"units" "C"
"key" "node"
"tolerance" 1.000000000000000e-04
)
"Pwr" FLOAT DOUBLE PROP(
"units" "W"
"key" "node"
"tolerance" 1.000000000000000e-09
)
"U" FLOAT DOUBLE PROP(
"units" ""
"key" "node"
"tolerance" 1.000000000000000e-06
)
"V/Sec" FLOAT DOUBLE PROP(
"units" "V/s"
"key" "node"
"tolerance" 9.999999999999999e-05
)
"I/Sec" FLOAT DOUBLE PROP(
"units" "A/s"
"key" "node"
"tolerance" 1.000000000000000e-06
)
"1/Sec" FLOAT DOUBLE PROP(
"units" "1/s"
"key" "node"
"tolerance" 9.999999999999999e-05
)
"HOD" FLOAT DOUBLE PROP(
"units" ""
"key" "node"
"tolerance" 1.000000000000000e-02
)
"Q" FLOAT DOUBLE PROP(
"units" "Coul"
"key" "node"
"tolerance" 1.000000000000000e-15
)
"Efield" FLOAT DOUBLE PROP(
"units" "V/m"
"key" "node"
"tolerance" 1.000000000000000e-06
"sigtype" "optical"
)
SWEEP
"Vds" "sweep" PROP(
"sweep_direction" 0
"plot" 0
"grid" 1
)
TRACE
"NM1:d" "I"
"Vds" "V"
VALUE
"Vds" 0.000000000000000e+00
"NM1:d" -1.143635255374293e-10
"Vds" 0.000000000000000e+00
"Vds" 1.600000000000000e-02
"NM1:d" 4.738033600755093e-07
"Vds" 1.600000000000000e-02
"Vds" 3.200000000000000e-02
"NM1:d" 8.963608261231945e-07
"Vds" 3.200000000000000e-02
"Vds" 4.800000000000000e-02
"NM1:d" 1.267581039264875e-06
"Vds" 4.800000000000000e-02
"Vds" 6.400000000000000e-02
"NM1:d" 1.583541551766678e-06
"Vds" 6.400000000000000e-02
"Vds" 8.000000000000000e-02
"NM1:d" 1.838806347731635e-06
"Vds" 8.000000000000000e-02
"Vds" 9.600000000000000e-02
"NM1:d" 2.031348096456809e-06
"Vds" 9.600000000000000e-02
"Vds" 1.120000000000000e-01
"NM1:d" 2.167853263595544e-06
"Vds" 1.120000000000000e-01
"Vds" 1.280000000000000e-01
"NM1:d" 2.261790212717213e-06
"Vds" 1.280000000000000e-01
"Vds" 1.440000000000000e-01
"NM1:d" 2.327040591044026e-06
"Vds" 1.440000000000000e-01
"Vds" 1.600000000000000e-01
"NM1:d" 2.374208009208216e-06
"Vds" 1.600000000000000e-01
"Vds" 1.760000000000000e-01
"NM1:d" 2.410277821872139e-06
"Vds" 1.760000000000000e-01
"Vds" 1.920000000000001e-01
"NM1:d" 2.439556170994011e-06
"Vds" 1.920000000000001e-01
"Vds" 2.080000000000001e-01
"NM1:d" 2.464639684534826e-06
"Vds" 2.080000000000001e-01
"Vds" 2.240000000000001e-01
"NM1:d" 2.487095659857199e-06
"Vds" 2.240000000000001e-01
"Vds" 2.400000000000001e-01
"NM1:d" 2.507881652303147e-06
"Vds" 2.400000000000001e-01
"Vds" 2.560000000000001e-01
"NM1:d" 2.527592671712722e-06
"Vds" 2.560000000000001e-01
"Vds" 2.720000000000001e-01
"NM1:d" 2.546605290104614e-06
"Vds" 2.720000000000001e-01
"Vds" 2.880000000000001e-01
"NM1:d" 2.565162166413979e-06
"Vds" 2.880000000000001e-01
"Vds" 3.040000000000002e-01
"NM1:d" 2.583422319573258e-06
"Vds" 3.040000000000002e-01
"Vds" 3.200000000000002e-01
"NM1:d" 2.601491553275493e-06
"Vds" 3.200000000000002e-01
"Vds" 3.360000000000002e-01
"NM1:d" 2.619441212269837e-06
"Vds" 3.360000000000002e-01
"Vds" 3.520000000000002e-01
"NM1:d" 2.637319959999741e-06
"Vds" 3.520000000000002e-01
"Vds" 3.680000000000002e-01
"NM1:d" 2.655161306091313e-06
"Vds" 3.680000000000002e-01
"Vds" 3.840000000000002e-01
"NM1:d" 2.672988498233097e-06
"Vds" 3.840000000000002e-01
"Vds" 4.000000000000002e-01
"NM1:d" 2.690817750880331e-06
"Vds" 4.000000000000002e-01
"Vds" 4.160000000000003e-01
"NM1:d" 2.708660406906460e-06
"Vds" 4.160000000000003e-01
"Vds" 4.320000000000003e-01
"NM1:d" 2.726524404021232e-06
"Vds" 4.320000000000003e-01
"Vds" 4.480000000000003e-01
"NM1:d" 2.744415283316150e-06
"Vds" 4.480000000000003e-01
"Vds" 4.640000000000003e-01
"NM1:d" 2.762336928094876e-06
"Vds" 4.640000000000003e-01
"Vds" 4.800000000000003e-01
"NM1:d" 2.780292059556417e-06
"Vds" 4.800000000000003e-01
"Vds" 4.960000000000003e-01
"NM1:d" 2.798282460375857e-06
"Vds" 4.960000000000003e-01
"Vds" 5.120000000000003e-01
"NM1:d" 2.816309282025596e-06
"Vds" 5.120000000000003e-01
"Vds" 5.280000000000004e-01
"NM1:d" 2.834373238856972e-06
"Vds" 5.280000000000004e-01
"Vds" 5.440000000000004e-01
"NM1:d" 2.852474738650586e-06
"Vds" 5.440000000000004e-01
"Vds" 5.600000000000004e-01
"NM1:d" 2.870613978289226e-06
"Vds" 5.600000000000004e-01
"Vds" 5.760000000000004e-01
"NM1:d" 2.888791014887424e-06
"Vds" 5.760000000000004e-01
"Vds" 5.920000000000004e-01
"NM1:d" 2.907005819360171e-06
"Vds" 5.920000000000004e-01
"Vds" 6.080000000000004e-01
"NM1:d" 2.925258317337445e-06
"Vds" 6.080000000000004e-01
"Vds" 6.240000000000004e-01
"NM1:d" 2.943548420892094e-06
"Vds" 6.240000000000004e-01
"Vds" 6.400000000000005e-01
"NM1:d" 2.961876053536855e-06
"Vds" 6.400000000000005e-01
"Vds" 6.560000000000005e-01
"NM1:d" 2.980241170230325e-06
"Vds" 6.560000000000005e-01
"Vds" 6.720000000000005e-01
"NM1:d" 2.998643773623167e-06
"Vds" 6.720000000000005e-01
"Vds" 6.880000000000005e-01
"NM1:d" 3.017083927415166e-06
"Vds" 6.880000000000005e-01
"Vds" 7.040000000000005e-01
"NM1:d" 3.035561767437598e-06
"Vds" 7.040000000000005e-01
"Vds" 7.200000000000005e-01
"NM1:d" 3.054077510894771e-06
"Vds" 7.200000000000005e-01
"Vds" 7.360000000000005e-01
"NM1:d" 3.072631464071777e-06
"Vds" 7.360000000000005e-01
"Vds" 7.520000000000006e-01
"NM1:d" 3.091224028727874e-06
"Vds" 7.520000000000006e-01
"Vds" 7.680000000000006e-01
"NM1:d" 3.109855707334275e-06
"Vds" 7.680000000000006e-01
"Vds" 7.840000000000006e-01
"NM1:d" 3.128527107275096e-06
"Vds" 7.840000000000006e-01
"Vds" 8.000000000000000e-01
"NM1:d" 3.147238944103199e-06
"Vds" 8.000000000000000e-01
END
