HEADER
"PSFversion" "1.00"
"simulator" "spectre"
"version" "23.1.0.538.isr10"
"date" "6:06:04 PM, Mon Jun 15, 2026"
"design" "// Point Netlist Generated on: Jun 15 15:25:05 2026"
"analysis type" "dc"
"analysis name" "dc"
"analysis description" "DC Analysis `dc': Vsd = (0 -> 800e-03)"
"xVecSorted" "unsorted"
"tolerance.relative" 1.000000000000000e-03
"reltol" 1.000000000000000e-03
"abstol(V)" 1.000000000000000e-06
"abstol(I)" 1.000000000000000e-12
"temp" 2.700000000000000e+01
"tnom" 2.700000000000000e+01
"tempeffects" "all"
"gmindc" 1.000000000000000e-12
TYPE
"sweep" FLOAT DOUBLE PROP(
"key" "sweep"
)
"LogicV" FLOAT DOUBLE PROP(
"key" "node"
)
"V" FLOAT DOUBLE PROP(
"units" "V"
"key" "node"
"tolerance" 1.000000000000000e-06
)
"I" FLOAT DOUBLE PROP(
"units" "A"
"key" "branch"
"tolerance" 1.000000000000000e-12
)
"MMF" FLOAT DOUBLE PROP(
"units" "A*turn"
"key" "node"
"tolerance" 1.000000000000000e-12
)
"Wb" FLOAT DOUBLE PROP(
"units" "Wb"
"key" "node"
"tolerance" 1.000000000000000e-09
)
"Temp" FLOAT DOUBLE PROP(
"units" "C"
"key" "node"
"tolerance" 1.000000000000000e-04
)
"Pwr" FLOAT DOUBLE PROP(
"units" "W"
"key" "node"
"tolerance" 1.000000000000000e-09
)
"U" FLOAT DOUBLE PROP(
"units" ""
"key" "node"
"tolerance" 1.000000000000000e-06
)
"V/Sec" FLOAT DOUBLE PROP(
"units" "V/s"
"key" "node"
"tolerance" 9.999999999999999e-05
)
"I/Sec" FLOAT DOUBLE PROP(
"units" "A/s"
"key" "node"
"tolerance" 1.000000000000000e-06
)
"1/Sec" FLOAT DOUBLE PROP(
"units" "1/s"
"key" "node"
"tolerance" 9.999999999999999e-05
)
"HOD" FLOAT DOUBLE PROP(
"units" ""
"key" "node"
"tolerance" 1.000000000000000e-02
)
"Q" FLOAT DOUBLE PROP(
"units" "Coul"
"key" "node"
"tolerance" 1.000000000000000e-15
)
"Efield" FLOAT DOUBLE PROP(
"units" "V/m"
"key" "node"
"tolerance" 1.000000000000000e-06
"sigtype" "optical"
)
SWEEP
"Vsd" "sweep" PROP(
"sweep_direction" 0
"plot" 0
"grid" 1
)
TRACE
"M0:s" "I"
"Vsd" "V"
VALUE
"Vsd" 0.000000000000000e+00
"M0:s" 1.938223612546719e-13
"Vsd" 0.000000000000000e+00
"Vsd" 1.600000000000000e-02
"M0:s" 1.694662859387283e-06
"Vsd" 1.600000000000000e-02
"Vsd" 3.200000000000000e-02
"M0:s" 3.150633287044106e-06
"Vsd" 3.200000000000000e-02
"Vsd" 4.800000000000000e-02
"M0:s" 4.372719584080001e-06
"Vsd" 4.800000000000000e-02
"Vsd" 6.400000000000000e-02
"M0:s" 5.370946028385244e-06
"Vsd" 6.400000000000000e-02
"Vsd" 8.000000000000000e-02
"M0:s" 6.163884358389742e-06
"Vsd" 8.000000000000000e-02
"Vsd" 9.600000000000000e-02
"M0:s" 6.779617004920305e-06
"Vsd" 9.600000000000000e-02
"Vsd" 1.120000000000000e-01
"M0:s" 7.252916380667929e-06
"Vsd" 1.120000000000000e-01
"Vsd" 1.280000000000000e-01
"M0:s" 7.619586312500564e-06
"Vsd" 1.280000000000000e-01
"Vsd" 1.440000000000000e-01
"M0:s" 7.910875833184547e-06
"Vsd" 1.440000000000000e-01
"Vsd" 1.600000000000000e-01
"M0:s" 8.150526127491295e-06
"Vsd" 1.600000000000000e-01
"Vsd" 1.760000000000000e-01
"M0:s" 8.354814365658906e-06
"Vsd" 1.760000000000000e-01
"Vsd" 1.920000000000001e-01
"M0:s" 8.534257929093731e-06
"Vsd" 1.920000000000001e-01
"Vsd" 2.080000000000001e-01
"M0:s" 8.695553171135702e-06
"Vsd" 2.080000000000001e-01
"Vsd" 2.240000000000001e-01
"M0:s" 8.843059252645958e-06
"Vsd" 2.240000000000001e-01
"Vsd" 2.400000000000001e-01
"M0:s" 8.979741055600156e-06
"Vsd" 2.400000000000001e-01
"Vsd" 2.560000000000001e-01
"M0:s" 9.107716047702254e-06
"Vsd" 2.560000000000001e-01
"Vsd" 2.720000000000001e-01
"M0:s" 9.228562286868915e-06
"Vsd" 2.720000000000001e-01
"Vsd" 2.880000000000001e-01
"M0:s" 9.343494712375695e-06
"Vsd" 2.880000000000001e-01
"Vsd" 3.040000000000002e-01
"M0:s" 9.453470862642790e-06
"Vsd" 3.040000000000002e-01
"Vsd" 3.200000000000002e-01
"M0:s" 9.559258228129243e-06
"Vsd" 3.200000000000002e-01
"Vsd" 3.360000000000002e-01
"M0:s" 9.661479783390410e-06
"Vsd" 3.360000000000002e-01
"Vsd" 3.520000000000002e-01
"M0:s" 9.760646310411853e-06
"Vsd" 3.520000000000002e-01
"Vsd" 3.680000000000002e-01
"M0:s" 9.857180191129911e-06
"Vsd" 3.680000000000002e-01
"Vsd" 3.840000000000002e-01
"M0:s" 9.951433371228691e-06
"Vsd" 3.840000000000002e-01
"Vsd" 4.000000000000002e-01
"M0:s" 1.004370116550701e-05
"Vsd" 4.000000000000002e-01
"Vsd" 4.160000000000003e-01
"M0:s" 1.013423300371440e-05
"Vsd" 4.160000000000003e-01
"Vsd" 4.320000000000003e-01
"M0:s" 1.022324087694361e-05
"Vsd" 4.320000000000003e-01
"Vsd" 4.480000000000003e-01
"M0:s" 1.031090602993083e-05
"Vsd" 4.480000000000003e-01
"Vsd" 4.640000000000003e-01
"M0:s" 1.039738430064959e-05
"Vsd" 4.640000000000003e-01
"Vsd" 4.800000000000003e-01
"M0:s" 1.048281040785118e-05
"Vsd" 4.800000000000003e-01
"Vsd" 4.960000000000003e-01
"M0:s" 1.056730141456404e-05
"Vsd" 4.960000000000003e-01
"Vsd" 5.120000000000003e-01
"M0:s" 1.065095954207495e-05
"Vsd" 5.120000000000003e-01
"Vsd" 5.280000000000004e-01
"M0:s" 1.073387446896570e-05
"Vsd" 5.280000000000004e-01
"Vsd" 5.440000000000004e-01
"M0:s" 1.081612521962472e-05
"Vsd" 5.440000000000004e-01
"Vsd" 5.600000000000004e-01
"M0:s" 1.089778172372225e-05
"Vsd" 5.600000000000004e-01
"Vsd" 5.760000000000004e-01
"M0:s" 1.097890611057851e-05
"Vsd" 5.760000000000004e-01
"Vsd" 5.920000000000004e-01
"M0:s" 1.105955378883982e-05
"Vsd" 5.920000000000004e-01
"Vsd" 6.080000000000004e-01
"M0:s" 1.113977435141830e-05
"Vsd" 6.080000000000004e-01
"Vsd" 6.240000000000004e-01
"M0:s" 1.121961233751709e-05
"Vsd" 6.240000000000004e-01
"Vsd" 6.400000000000005e-01
"M0:s" 1.129910787720871e-05
"Vsd" 6.400000000000005e-01
"Vsd" 6.560000000000005e-01
"M0:s" 1.137829723904517e-05
"Vsd" 6.560000000000005e-01
"Vsd" 6.720000000000005e-01
"M0:s" 1.145721329724383e-05
"Vsd" 6.720000000000005e-01
"Vsd" 6.880000000000005e-01
"M0:s" 1.153588593187597e-05
"Vsd" 6.880000000000005e-01
"Vsd" 7.040000000000005e-01
"M0:s" 1.161434237300411e-05
"Vsd" 7.040000000000005e-01
"Vsd" 7.200000000000005e-01
"M0:s" 1.169260749773108e-05
"Vsd" 7.200000000000005e-01
"Vsd" 7.360000000000005e-01
"M0:s" 1.177070408753090e-05
"Vsd" 7.360000000000005e-01
"Vsd" 7.520000000000006e-01
"M0:s" 1.184865305194795e-05
"Vsd" 7.520000000000006e-01
"Vsd" 7.680000000000006e-01
"M0:s" 1.192647362371063e-05
"Vsd" 7.680000000000006e-01
"Vsd" 7.840000000000006e-01
"M0:s" 1.200418352946024e-05
"Vsd" 7.840000000000006e-01
"Vsd" 8.000000000000000e-01
"M0:s" 1.208179913960471e-05
"Vsd" 8.000000000000000e-01
END
