HEADER
"PSFversion" "1.00"
"simulator" "spectre"
"version" "23.1.0.538.isr10"
"date" "11:31:54 AM, Tue Jun 23, 2026"
"design" "// Point Netlist Generated on: Jun 15 14:52:29 2026"
"analysis type" "dc"
"analysis name" "dc"
"analysis description" "DC Analysis `dc': Vds = (0 -> 800e-03)"
"xVecSorted" "unsorted"
"tolerance.relative" 1.000000000000000e-03
"reltol" 1.000000000000000e-03
"abstol(V)" 1.000000000000000e-06
"abstol(I)" 1.000000000000000e-12
"temp" 2.700000000000000e+01
"tnom" 2.700000000000000e+01
"tempeffects" "all"
"gmindc" 1.000000000000000e-12
TYPE
"sweep" FLOAT DOUBLE PROP(
"key" "sweep"
)
"LogicV" FLOAT DOUBLE PROP(
"key" "node"
)
"V" FLOAT DOUBLE PROP(
"units" "V"
"key" "node"
"tolerance" 1.000000000000000e-06
)
"I" FLOAT DOUBLE PROP(
"units" "A"
"key" "branch"
"tolerance" 1.000000000000000e-12
)
"MMF" FLOAT DOUBLE PROP(
"units" "A*turn"
"key" "node"
"tolerance" 1.000000000000000e-12
)
"Wb" FLOAT DOUBLE PROP(
"units" "Wb"
"key" "node"
"tolerance" 1.000000000000000e-09
)
"Temp" FLOAT DOUBLE PROP(
"units" "C"
"key" "node"
"tolerance" 1.000000000000000e-04
)
"Pwr" FLOAT DOUBLE PROP(
"units" "W"
"key" "node"
"tolerance" 1.000000000000000e-09
)
"U" FLOAT DOUBLE PROP(
"units" ""
"key" "node"
"tolerance" 1.000000000000000e-06
)
"V/Sec" FLOAT DOUBLE PROP(
"units" "V/s"
"key" "node"
"tolerance" 9.999999999999999e-05
)
"I/Sec" FLOAT DOUBLE PROP(
"units" "A/s"
"key" "node"
"tolerance" 1.000000000000000e-06
)
"1/Sec" FLOAT DOUBLE PROP(
"units" "1/s"
"key" "node"
"tolerance" 9.999999999999999e-05
)
"HOD" FLOAT DOUBLE PROP(
"units" ""
"key" "node"
"tolerance" 1.000000000000000e-02
)
"Q" FLOAT DOUBLE PROP(
"units" "Coul"
"key" "node"
"tolerance" 1.000000000000000e-15
)
"Efield" FLOAT DOUBLE PROP(
"units" "V/m"
"key" "node"
"tolerance" 1.000000000000000e-06
"sigtype" "optical"
)
SWEEP
"Vds" "sweep" PROP(
"sweep_direction" 0
"plot" 0
"grid" 1
)
TRACE
"M0:d" "I"
"Vds" "V"
VALUE
"Vds" 0.000000000000000e+00
"M0:d" -4.199674485682395e-13
"Vds" 0.000000000000000e+00
"Vds" 1.600000000000000e-02
"M0:d" 1.434099391055745e-06
"Vds" 1.600000000000000e-02
"Vds" 3.200000000000000e-02
"M0:d" 2.618087958916452e-06
"Vds" 3.200000000000000e-02
"Vds" 4.800000000000000e-02
"M0:d" 3.572466204322414e-06
"Vds" 4.800000000000000e-02
"Vds" 6.400000000000000e-02
"M0:d" 4.320627218025212e-06
"Vds" 6.400000000000000e-02
"Vds" 8.000000000000000e-02
"M0:d" 4.890095749474478e-06
"Vds" 8.000000000000000e-02
"Vds" 9.600000000000000e-02
"M0:d" 5.312534674433622e-06
"Vds" 9.600000000000000e-02
"Vds" 1.120000000000000e-01
"M0:d" 5.621762258925009e-06
"Vds" 1.120000000000000e-01
"Vds" 1.280000000000000e-01
"M0:d" 5.850194401739683e-06
"Vds" 1.280000000000000e-01
"Vds" 1.440000000000000e-01
"M0:d" 6.025248230067243e-06
"Vds" 1.440000000000000e-01
"Vds" 1.600000000000000e-01
"M0:d" 6.167317264466472e-06
"Vds" 1.600000000000000e-01
"Vds" 1.760000000000000e-01
"M0:d" 6.289827312637344e-06
"Vds" 1.760000000000000e-01
"Vds" 1.920000000000001e-01
"M0:d" 6.400698352417889e-06
"Vds" 1.920000000000001e-01
"Vds" 2.080000000000001e-01
"M0:d" 6.504187014792861e-06
"Vds" 2.080000000000001e-01
"Vds" 2.240000000000001e-01
"M0:d" 6.602429615429292e-06
"Vds" 2.240000000000001e-01
"Vds" 2.400000000000001e-01
"M0:d" 6.696474665911252e-06
"Vds" 2.400000000000001e-01
"Vds" 2.560000000000001e-01
"M0:d" 6.786872480235374e-06
"Vds" 2.560000000000001e-01
"Vds" 2.720000000000001e-01
"M0:d" 6.873970675255750e-06
"Vds" 2.720000000000001e-01
"Vds" 2.880000000000001e-01
"M0:d" 6.958044491565203e-06
"Vds" 2.880000000000001e-01
"Vds" 3.040000000000002e-01
"M0:d" 7.039345658595779e-06
"Vds" 3.040000000000002e-01
"Vds" 3.200000000000002e-01
"M0:d" 7.118115839961414e-06
"Vds" 3.200000000000002e-01
"Vds" 3.360000000000002e-01
"M0:d" 7.194587033981779e-06
"Vds" 3.360000000000002e-01
"Vds" 3.520000000000002e-01
"M0:d" 7.268978606575383e-06
"Vds" 3.520000000000002e-01
"Vds" 3.680000000000002e-01
"M0:d" 7.341494548056484e-06
"Vds" 3.680000000000002e-01
"Vds" 3.840000000000002e-01
"M0:d" 7.412321919594288e-06
"Vds" 3.840000000000002e-01
"Vds" 4.000000000000002e-01
"M0:d" 7.481630465616822e-06
"Vds" 4.000000000000002e-01
"Vds" 4.160000000000003e-01
"M0:d" 7.549573084038081e-06
"Vds" 4.160000000000003e-01
"Vds" 4.320000000000003e-01
"M0:d" 7.616286831781677e-06
"Vds" 4.320000000000003e-01
"Vds" 4.480000000000003e-01
"M0:d" 7.681894211355392e-06
"Vds" 4.480000000000003e-01
"Vds" 4.640000000000003e-01
"M0:d" 7.746504562514864e-06
"Vds" 4.640000000000003e-01
"Vds" 4.800000000000003e-01
"M0:d" 7.810215447013470e-06
"Vds" 4.800000000000003e-01
"Vds" 4.960000000000003e-01
"M0:d" 7.873113961714674e-06
"Vds" 4.960000000000003e-01
"Vds" 5.120000000000003e-01
"M0:d" 7.935277947378425e-06
"Vds" 5.120000000000003e-01
"Vds" 5.280000000000004e-01
"M0:d" 7.996777079141082e-06
"Vds" 5.280000000000004e-01
"Vds" 5.440000000000004e-01
"M0:d" 8.057673837573350e-06
"Vds" 5.440000000000004e-01
"Vds" 5.600000000000004e-01
"M0:d" 8.118024365907286e-06
"Vds" 5.600000000000004e-01
"Vds" 5.760000000000004e-01
"M0:d" 8.177879222475090e-06
"Vds" 5.760000000000004e-01
"Vds" 5.920000000000004e-01
"M0:d" 8.237284038818481e-06
"Vds" 5.920000000000004e-01
"Vds" 6.080000000000004e-01
"M0:d" 8.296280094130076e-06
"Vds" 6.080000000000004e-01
"Vds" 6.240000000000004e-01
"M0:d" 8.354904816213861e-06
"Vds" 6.240000000000004e-01
"Vds" 6.400000000000005e-01
"M0:d" 8.413192218335791e-06
"Vds" 6.400000000000005e-01
"Vds" 6.560000000000005e-01
"M0:d" 8.471173280379043e-06
"Vds" 6.560000000000005e-01
"Vds" 6.720000000000005e-01
"M0:d" 8.528876281740688e-06
"Vds" 6.720000000000005e-01
"Vds" 6.880000000000005e-01
"M0:d" 8.586327092473152e-06
"Vds" 6.880000000000005e-01
"Vds" 7.040000000000005e-01
"M0:d" 8.643549428315309e-06
"Vds" 7.040000000000005e-01
"Vds" 7.200000000000005e-01
"M0:d" 8.700565074490565e-06
"Vds" 7.200000000000005e-01
"Vds" 7.360000000000005e-01
"M0:d" 8.757394082472263e-06
"Vds" 7.360000000000005e-01
"Vds" 7.520000000000006e-01
"M0:d" 8.814054943327895e-06
"Vds" 7.520000000000006e-01
"Vds" 7.680000000000006e-01
"M0:d" 8.870564740743724e-06
"Vds" 7.680000000000006e-01
"Vds" 7.840000000000006e-01
"M0:d" 8.926939286393887e-06
"Vds" 7.840000000000006e-01
"Vds" 8.000000000000000e-01
"M0:d" 8.983193239942153e-06
"Vds" 8.000000000000000e-01
END
